;$FILEVERSION=1.1
;$STARTTIME=46053.6120590509
;
;   Start time: 1/31/2026 14:41:21.902.0
;   Generated by PCAN-View v5.3.3.958
;
;   Message Number
;   |         Time Offset (ms)
;   |         |        Type
;   |         |        |        ID (hex)
;   |         |        |        |     Data Length
;   |         |        |        |     |   Data Bytes (hex) ...
;   |         |        |        |     |   |
;---+--   ----+----  --+--  ----+---  +  -+ -- -- -- -- -- -- --
     1)        83.1  Rx         050F  3  01 00 0A 
     2)       183.1  Rx         050F  3  01 00 0A 
     3)       183.4  Rx         050F  3  00 07 21 
     4)       283.2  Rx         050F  3  01 00 0A 
     5)       383.2  Rx         050F  3  01 00 0B 
     6)       483.2  Rx         050F  3  01 00 0C 
     7)       583.2  Rx         050F  3  01 00 0E 
     8)       683.2  Rx         050F  3  01 00 10 
     9)       783.2  Rx         050F  3  01 00 12 
    10)       883.2  Rx         050F  3  01 00 13 
    11)       983.2  Rx         050F  3  01 00 15 
    12)      1083.2  Rx         050F  3  01 00 16 
    13)      1183.2  Rx         050F  3  01 00 17 
    14)      1183.5  Rx         050F  3  00 07 2D 
    15)      1283.2  Rx         050F  3  01 00 18 
    16)      1383.2  Rx         050F  3  01 00 1A 
    17)      1483.2  Rx         050F  3  01 00 1C 
    18)      1583.3  Rx         050F  3  01 00 1F 
    19)      1683.3  Rx         050F  3  01 00 21 
    20)      1783.3  Rx         050F  3  01 00 23 
    21)      1883.3  Rx         050F  3  01 00 25 
    22)      1983.3  Rx         050F  3  01 00 26 
    23)      2083.2  Rx         050F  3  01 00 27 
    24)      2183.3  Rx         050F  3  01 00 28 
    25)      2183.5  Rx         050F  3  00 07 31 
    26)      2283.3  Rx         050F  3  01 00 29 
    27)      2383.3  Rx         050F  3  01 00 2A 
    28)      2483.2  Rx         050F  3  01 00 2B 
    29)      2583.3  Rx         050F  3  01 00 2C 
    30)      2683.3  Rx         050F  3  01 00 2D 
    31)      2783.3  Rx         050F  3  01 00 2F 
    32)      2883.3  Rx         050F  3  01 00 2F 
    33)      2983.3  Rx         050F  3  01 00 30 
    34)      3083.3  Rx         050F  3  01 00 31 
    35)      3183.3  Rx         050F  3  01 00 32 
    36)      3183.6  Rx         050F  3  00 07 3D 
    37)      3283.3  Rx         050F  3  01 00 33 
    38)      3383.3  Rx         050F  3  01 00 34 
    39)      3483.4  Rx         050F  3  01 00 35 
    40)      3583.4  Rx         050F  3  01 00 36 
    41)      3683.4  Rx         050F  3  01 00 38 
    42)      3783.4  Rx         050F  3  01 00 39 
    43)      3883.4  Rx         050F  3  01 00 3A 
    44)      3983.4  Rx         050F  3  01 00 3C 
    45)      4083.3  Rx         050F  3  01 00 3D 
    46)      4183.3  Rx         050F  3  01 00 3E 
    47)      4183.6  Rx         050F  3  00 07 3F 
    48)      4283.5  Rx         050F  3  01 00 40 
    49)      4383.5  Rx         050F  3  01 00 40 
    50)      4483.5  Rx         050F  3  01 00 41 
    51)      4583.5  Rx         050F  3  01 00 3F 
    52)      4683.6  Rx         050F  3  01 00 3A 
    53)      4783.5  Rx         050F  3  01 00 33 
    54)      4883.6  Rx         050F  3  01 00 2D 
    55)      4983.6  Rx         050F  3  01 00 28 
    56)      5083.5  Rx         050F  3  01 00 22 
    57)      5183.5  Rx         050F  3  01 00 1A 
    58)      5183.8  Rx         050F  3  00 07 4D 
    59)      5283.4  Rx         050F  3  01 00 12 
    60)      5383.5  Rx         050F  3  01 00 0E 
    61)      5483.5  Rx         050F  3  01 00 0C 
    62)      5583.5  Rx         050F  3  01 00 0B 
    63)      5683.5  Rx         050F  3  01 00 0B 
    64)      5783.6  Rx         050F  3  01 00 0B 
    65)      5883.6  Rx         050F  3  01 00 0B 
    66)      5983.6  Rx         050F  3  01 00 0B 
    67)      6083.5  Rx         050F  3  01 00 0B 
    68)      6183.6  Rx         050F  3  01 00 0C 
    69)      6183.8  Rx         050F  3  00 07 49 
    70)      6283.6  Rx         050F  3  01 00 0D 
    71)      6383.6  Rx         050F  3  01 00 0F 
    72)      6483.6  Rx         050F  3  01 00 12 
    73)      6583.6  Rx         050F  3  01 00 14 
    74)      6683.6  Rx         050F  3  01 00 15 
    75)      6783.6  Rx         050F  3  01 00 16 
    76)      6883.7  Rx         050F  3  01 00 18 
    77)      6983.7  Rx         050F  3  01 00 1A 
    78)      7083.6  Rx         050F  3  01 00 1C 
    79)      7183.6  Rx         050F  3  01 00 1F 
    80)      7183.9  Rx         050F  3  00 07 48 
    81)      7283.6  Rx         050F  3  01 00 22 
    82)      7383.7  Rx         050F  3  01 00 24 
    83)      7483.7  Rx         050F  3  01 00 26 
    84)      7583.7  Rx         050F  3  01 00 27 
    85)      7683.7  Rx         050F  3  01 00 28 
    86)      7783.7  Rx         050F  3  01 00 2A 
    87)      7883.8  Rx         050F  3  01 00 2B 
    88)      7983.8  Rx         050F  3  01 00 2C 
    89)      8083.7  Rx         050F  3  01 00 2D 
    90)      8183.7  Rx         050F  3  01 00 2E 
    91)      8184.0  Rx         050F  3  00 07 44 
    92)      8283.7  Rx         050F  3  01 00 30 
    93)      8383.7  Rx         050F  3  01 00 31 
    94)      8483.7  Rx         050F  3  01 00 32 
    95)      8583.7  Rx         050F  3  01 00 33 
    96)      8683.7  Rx         050F  3  01 00 34 
    97)      8783.7  Rx         050F  3  01 00 36 
    98)      8883.8  Rx         050F  3  01 00 37 
    99)      8983.8  Rx         050F  3  01 00 39 
   100)      9083.7  Rx         050F  3  01 00 3B 
   101)      9183.7  Rx         050F  3  01 00 3C 
   102)      9184.0  Rx         050F  3  00 07 43 
   103)      9283.8  Rx         050F  3  01 00 3E 
   104)      9383.8  Rx         050F  3  01 00 40 
   105)      9483.8  Rx         050F  3  01 00 41 
   106)      9583.8  Rx         050F  3  01 00 43 
   107)      9683.8  Rx         050F  3  01 00 45 
   108)      9783.8  Rx         050F  3  01 00 47 
   109)      9883.9  Rx         050F  3  01 00 48 
   110)      9983.9  Rx         050F  3  01 00 4A 
   111)     10083.8  Rx         050F  3  01 00 4C 
   112)     10183.8  Rx         050F  3  01 00 4D 
   113)     10184.1  Rx         050F  3  00 07 3E 
   114)     10283.9  Rx         050F  3  01 00 4F 
   115)     10383.9  Rx         050F  3  01 00 4F 
   116)     10483.9  Rx         050F  3  01 00 50 
   117)     10584.0  Rx         050F  3  01 00 4F 
   118)     10684.0  Rx         050F  3  01 00 4B 
   119)     10784.0  Rx         050F  3  01 00 44 
   120)     10884.0  Rx         050F  3  01 00 3B 
   121)     10984.0  Rx         050F  3  01 00 35 
   122)     11083.9  Rx         050F  3  01 00 2F 
   123)     11183.9  Rx         050F  3  01 00 2A 
   124)     11184.2  Rx         050F  3  00 07 43 
   125)     11284.0  Rx         050F  3  01 00 25 
   126)     11384.0  Rx         050F  3  01 00 1F 
   127)     11483.9  Rx         050F  3  01 00 17 
   128)     11583.9  Rx         050F  3  01 00 10 
   129)     11683.9  Rx         050F  3  01 00 0D 
   130)     11784.0  Rx         050F  3  01 00 0C 
   131)     11884.0  Rx         050F  3  01 00 0B 
   132)     11984.0  Rx         050F  3  01 00 0B 
   133)     12084.0  Rx         050F  3  01 00 0B 
   134)     12184.0  Rx         050F  3  01 00 0B 
   135)     12184.3  Rx         050F  3  00 07 3C 
   136)     12284.0  Rx         050F  3  01 00 0D 
   137)     12384.0  Rx         050F  3  01 00 0F 
   138)     12484.0  Rx         050F  3  01 00 12 
   139)     12584.1  Rx         050F  3  01 00 14 
   140)     12684.1  Rx         050F  3  01 00 16 
   141)     12784.1  Rx         050F  3  01 00 18 
   142)     12884.1  Rx         050F  3  01 00 1A 
   143)     12984.1  Rx         050F  3  01 00 1D 
   144)     13084.0  Rx         050F  3  01 00 20 
   145)     13184.1  Rx         050F  3  01 00 23 
   146)     13184.4  Rx         050F  3  00 07 49 
   147)     13284.0  Rx         050F  3  01 00 25 
   148)     13384.1  Rx         050F  3  01 00 27 
   149)     13484.0  Rx         050F  3  01 00 29 
   150)     13584.1  Rx         050F  3  01 00 2B 
   151)     13684.0  Rx         050F  3  01 00 2C 
   152)     13784.0  Rx         050F  3  01 00 2E 
   153)     13884.0  Rx         050F  3  01 00 2F 
   154)     13984.0  Rx         050F  3  01 00 31 
   155)     14083.9  Rx         050F  3  01 00 32 
   156)     14183.9  Rx         050F  3  01 00 34 
   157)     14184.2  Rx         050F  3  00 07 4E 
   158)     14283.9  Rx         050F  3  01 00 36 
   159)     14383.9  Rx         050F  3  01 00 38 
   160)     14483.9  Rx         050F  3  01 00 3A 
   161)     14583.9  Rx         050F  3  01 00 3C 
   162)     14683.9  Rx         050F  3  01 00 3E 
   163)     14783.9  Rx         050F  3  01 00 40 
   164)     14883.9  Rx         050F  3  01 00 43 
   165)     14983.9  Rx         050F  3  01 00 45 
   166)     15083.7  Rx         050F  3  01 00 47 
   167)     15183.8  Rx         050F  3  01 00 4A 
   168)     15184.1  Rx         050F  3  00 07 57 
   169)     15283.8  Rx         050F  3  01 00 4C 
   170)     15383.8  Rx         050F  3  01 00 4E 
   171)     15483.8  Rx         050F  3  01 00 50 
   172)     15583.8  Rx         050F  3  01 00 51 
   173)     15683.8  Rx         050F  3  01 00 53 
   174)     15783.8  Rx         050F  3  01 00 55 
   175)     15883.9  Rx         050F  3  01 00 57 
   176)     15983.9  Rx         050F  3  01 00 59 
   177)     16083.8  Rx         050F  3  01 00 5C 
   178)     16183.8  Rx         050F  3  01 00 5E 
   179)     16184.1  Rx         050F  3  00 07 5C 
   180)     16283.8  Rx         050F  3  01 00 5F 
   181)     16383.8  Rx         050F  3  01 00 60 
   182)     16483.9  Rx         050F  3  01 00 62 
   183)     16583.9  Rx         050F  3  01 00 64 
   184)     16683.9  Rx         050F  3  01 00 65 
   185)     16783.9  Rx         050F  3  01 00 65 
   186)     16883.9  Rx         050F  3  01 00 64 
   187)     16983.9  Rx         050F  3  01 00 60 
   188)     17083.8  Rx         050F  3  01 00 5B 
   189)     17183.8  Rx         050F  3  01 00 55 
   190)     17184.1  Rx         050F  3  00 07 5F 
   191)     17283.8  Rx         050F  3  01 00 50 
   192)     17383.8  Rx         050F  3  01 00 47 
   193)     17483.9  Rx         050F  3  01 00 40 
   194)     17583.9  Rx         050F  3  01 00 38 
   195)     17683.9  Rx         050F  3  01 00 32 
   196)     17783.9  Rx         050F  3  01 00 2D 
   197)     17883.9  Rx         050F  3  01 00 29 
   198)     17983.9  Rx         050F  3  01 00 24 
   199)     18083.8  Rx         050F  3  01 00 1E 
   200)     18183.7  Rx         050F  3  01 00 18 
   201)     18184.0  Rx         050F  3  00 07 57 
   202)     18283.7  Rx         050F  3  01 00 11 
   203)     18383.7  Rx         050F  3  01 00 0E 
   204)     18483.7  Rx         050F  3  01 00 0D 
   205)     18583.7  Rx         050F  3  01 00 0C 
   206)     18683.7  Rx         050F  3  01 00 0C 
   207)     18783.7  Rx         050F  3  01 00 0D 
   208)     18883.7  Rx         050F  3  01 00 0F 
   209)     18983.7  Rx         050F  3  01 00 12 
   210)     19083.7  Rx         050F  3  01 00 15 
   211)     19183.6  Rx         050F  3  01 00 17 
   212)     19183.9  Rx         050F  3  00 07 47 
   213)     19283.6  Rx         050F  3  01 00 19 
   214)     19383.6  Rx         050F  3  01 00 1C 
   215)     19483.6  Rx         050F  3  01 00 20 
   216)     19583.6  Rx         050F  3  01 00 24 
   217)     19683.6  Rx         050F  3  01 00 26 
   218)     19783.6  Rx         050F  3  01 00 28 
   219)     19883.6  Rx         050F  3  01 00 2A 
   220)     19983.7  Rx         050F  3  01 00 2C 
   221)     20083.5  Rx         050F  3  01 00 2E 
   222)     20183.5  Rx         050F  3  01 00 30 
   223)     20183.8  Rx         050F  3  00 07 57 
   224)     20283.5  Rx         050F  3  01 00 32 
   225)     20383.6  Rx         050F  3  01 00 34 
   226)     20483.5  Rx         050F  3  01 00 37 
   227)     20583.5  Rx         050F  3  01 00 3A 
   228)     20683.5  Rx         050F  3  01 00 3C 
   229)     20783.5  Rx         050F  3  01 00 3F 
   230)     20883.6  Rx         050F  3  01 00 42 
   231)     20983.5  Rx         050F  3  01 00 45 
   232)     21083.5  Rx         050F  3  01 00 49 
   233)     21183.4  Rx         050F  3  01 00 4B 
   234)     21183.7  Rx         050F  3  00 07 53 
   235)     21283.5  Rx         050F  3  01 00 4E 
   236)     21383.5  Rx         050F  3  01 00 51 
   237)     21483.5  Rx         050F  3  01 00 53 
   238)     21583.5  Rx         050F  3  01 00 56 
   239)     21683.5  Rx         050F  3  01 00 58 
   240)     21783.5  Rx         050F  3  01 00 5B 
   241)     21883.5  Rx         050F  3  01 00 5E 
   242)     21983.5  Rx         050F  3  01 00 60 
   243)     22083.4  Rx         050F  3  01 00 62 
   244)     22183.4  Rx         050F  3  01 00 65 
   245)     22183.7  Rx         050F  3  00 07 53 
   246)     22283.3  Rx         050F  3  01 00 68 
   247)     22383.4  Rx         050F  3  01 00 6B 
   248)     22483.3  Rx         050F  3  01 00 6E 
   249)     22583.3  Rx         050F  3  01 00 71 
   250)     22683.3  Rx         050F  3  01 00 73 
   251)     22783.3  Rx         050F  3  01 00 74 
   252)     22883.3  Rx         050F  3  01 00 77 
   253)     22983.3  Rx         050F  3  01 00 7B 
   254)     23083.2  Rx         050F  3  01 00 7E 
   255)     23183.3  Rx         050F  3  01 00 81 
   256)     23183.6  Rx         050F  3  00 07 5B 
   257)     23283.3  Rx         050F  3  01 00 83 
   258)     23383.3  Rx         050F  3  01 00 83 
   259)     23483.3  Rx         050F  3  01 00 82 
   260)     23583.3  Rx         050F  3  01 00 7F 
   261)     23683.3  Rx         050F  3  01 00 77 
   262)     23783.3  Rx         050F  3  01 00 6F 
   263)     23883.3  Rx         050F  3  01 00 69 
   264)     23983.3  Rx         050F  3  01 00 62 
   265)     24083.1  Rx         050F  3  01 00 5D 
   266)     24183.1  Rx         050F  3  01 00 56 
   267)     24183.4  Rx         050F  3  00 07 5A 
   268)     24283.1  Rx         050F  3  01 00 51 
   269)     24383.1  Rx         050F  3  01 00 49 
   270)     24483.1  Rx         050F  3  01 00 41 
   271)     24583.1  Rx         050F  3  01 00 3A 
   272)     24683.1  Rx         050F  3  01 00 34 
   273)     24783.1  Rx         050F  3  01 00 2E 
   274)     24883.1  Rx         050F  3  01 00 2A 
   275)     24983.1  Rx         050F  3  01 00 26 
   276)     25083.0  Rx         050F  3  01 00 21 
   277)     25183.0  Rx         050F  3  01 00 1B 
   278)     25183.3  Rx         050F  3  00 07 56 
   279)     25282.9  Rx         050F  3  01 00 13 
   280)     25382.9  Rx         050F  3  01 00 0F 
   281)     25482.9  Rx         050F  3  01 00 0D 
   282)     25582.9  Rx         050F  3  01 00 0C 
   283)     25682.9  Rx         050F  3  01 00 0C 
   284)     25782.8  Rx         050F  3  01 00 0D 
   285)     25882.9  Rx         050F  3  01 00 11 
   286)     25982.8  Rx         050F  3  01 00 14 
   287)     26082.8  Rx         050F  3  01 00 17 
   288)     26182.8  Rx         050F  3  01 00 1A 
   289)     26183.1  Rx         050F  3  00 07 58 
   290)     26282.7  Rx         050F  3  01 00 1F 
   291)     26382.7  Rx         050F  3  01 00 23 
   292)     26482.7  Rx         050F  3  01 00 26 
   293)     26582.7  Rx         050F  3  01 00 29 
   294)     26682.7  Rx         050F  3  01 00 2B 
   295)     26782.7  Rx         050F  3  01 00 2E 
   296)     26882.7  Rx         050F  3  01 00 30 
   297)     26982.7  Rx         050F  3  01 00 33 
   298)     27082.6  Rx         050F  3  01 00 36 
   299)     27182.6  Rx         050F  3  01 00 3A 
   300)     27182.9  Rx         050F  3  00 07 5B 
   301)     27282.7  Rx         050F  3  01 00 3D 
   302)     27382.6  Rx         050F  3  01 00 41 
   303)     27482.6  Rx         050F  3  01 00 46 
   304)     27582.6  Rx         050F  3  01 00 49 
   305)     27682.6  Rx         050F  3  01 00 4D 
   306)     27782.6  Rx         050F  3  01 00 50 
   307)     27882.6  Rx         050F  3  01 00 54 
   308)     27982.7  Rx         050F  3  01 00 57 
   309)     28082.5  Rx         050F  3  01 00 5B 
   310)     28182.5  Rx         050F  3  01 00 5E 
   311)     28182.8  Rx         050F  3  00 07 60 
   312)     28282.5  Rx         050F  3  01 00 61 
   313)     28382.6  Rx         050F  3  01 00 65 
   314)     28482.6  Rx         050F  3  01 00 69 
   315)     28582.6  Rx         050F  3  01 00 6D 
   316)     28682.6  Rx         050F  3  01 00 71 
   317)     28782.6  Rx         050F  3  01 00 75 
   318)     28882.6  Rx         050F  3  01 00 79 
   319)     28982.6  Rx         050F  3  01 00 7D 
   320)     29082.5  Rx         050F  3  01 00 80 
   321)     29182.5  Rx         050F  3  01 00 84 
   322)     29182.8  Rx         050F  3  00 07 6B 
   323)     29282.5  Rx         050F  3  01 00 87 
   324)     29382.5  Rx         050F  3  01 00 8C 
   325)     29482.5  Rx         050F  3  01 00 91 
   326)     29582.5  Rx         050F  3  01 00 95 
   327)     29682.5  Rx         050F  3  01 00 98 
   328)     29782.5  Rx         050F  3  01 00 9A 
   329)     29882.5  Rx         050F  3  01 00 9D 
   330)     29982.5  Rx         050F  3  01 00 A3 
   331)     30082.4  Rx         050F  3  01 00 B0 
   332)     30182.4  Rx         050F  3  01 00 B9 
   333)     30182.7  Rx         050F  3  00 07 73 
   334)     30282.5  Rx         050F  3  01 00 BF 
   335)     30382.4  Rx         050F  3  01 00 C2 
   336)     30482.5  Rx         050F  3  01 00 C1 
   337)     30582.5  Rx         050F  3  01 00 B3 
   338)     30682.4  Rx         050F  3  01 00 A6 
   339)     30782.5  Rx         050F  3  01 00 9E 
   340)     30882.4  Rx         050F  3  01 00 98 
   341)     30982.4  Rx         050F  3  01 00 8F 
   342)     31082.3  Rx         050F  3  01 00 88 
   343)     31182.3  Rx         050F  3  01 00 80 
   344)     31182.6  Rx         050F  3  00 07 78 
   345)     31282.3  Rx         050F  3  01 00 76 
   346)     31382.3  Rx         050F  3  01 00 6C 
   347)     31482.3  Rx         050F  3  01 00 65 
   348)     31582.3  Rx         050F  3  01 00 5E 
   349)     31682.3  Rx         050F  3  01 00 58 
   350)     31782.3  Rx         050F  3  01 00 52 
   351)     31882.3  Rx         050F  3  01 00 4A 
   352)     31982.3  Rx         050F  3  01 00 42 
   353)     32082.2  Rx         050F  3  01 00 3B 
   354)     32182.2  Rx         050F  3  01 00 35 
   355)     32182.5  Rx         050F  3  00 07 7E 
   356)     32282.2  Rx         050F  3  01 00 2F 
   357)     32382.2  Rx         050F  3  01 00 2B 
   358)     32482.2  Rx         050F  3  01 00 27 
   359)     32582.2  Rx         050F  3  01 00 22 
   360)     32682.2  Rx         050F  3  01 00 1C 
   361)     32782.1  Rx         050F  3  01 00 15 
   362)     32882.1  Rx         050F  3  01 00 0F 
   363)     32982.1  Rx         050F  3  01 00 0D 
   364)     33081.9  Rx         050F  3  01 00 0C 
   365)     33182.0  Rx         050F  3  01 00 0D 
   366)     33182.3  Rx         050F  3  00 07 81 
   367)     33281.9  Rx         050F  3  01 00 10 
   368)     33381.9  Rx         050F  3  01 00 14 
   369)     33481.9  Rx         050F  3  01 00 18 
   370)     33581.9  Rx         050F  3  01 00 1D 
   371)     33681.9  Rx         050F  3  01 00 22 
   372)     33781.9  Rx         050F  3  01 00 26 
   373)     33881.9  Rx         050F  3  01 00 2A 
   374)     33981.9  Rx         050F  3  01 00 2E 
   375)     34081.8  Rx         050F  3  01 00 31 
   376)     34181.8  Rx         050F  3  01 00 35 
   377)     34182.1  Rx         050F  3  00 07 8A 
   378)     34281.8  Rx         050F  3  01 00 39 
   379)     34381.8  Rx         050F  3  01 00 3E 
   380)     34481.7  Rx         050F  3  01 00 43 
   381)     34581.8  Rx         050F  3  01 00 49 
   382)     34681.7  Rx         050F  3  01 00 4D 
   383)     34781.7  Rx         050F  3  01 00 51 
   384)     34881.7  Rx         050F  3  01 00 57 
   385)     34981.7  Rx         050F  3  01 00 5B 
   386)     35081.6  Rx         050F  3  01 00 5F 
   387)     35181.6  Rx         050F  3  01 00 64 
   388)     35181.9  Rx         050F  3  00 07 8D 
   389)     35281.6  Rx         050F  3  01 00 6A 
   390)     35381.6  Rx         050F  3  01 00 70 
   391)     35481.5  Rx         050F  3  01 00 78 
   392)     35581.5  Rx         050F  3  01 00 7D 
   393)     35681.5  Rx         050F  3  01 00 80 
   394)     35781.5  Rx         050F  3  01 00 85 
   395)     35881.5  Rx         050F  3  01 00 89 
   396)     35981.5  Rx         050F  3  01 00 8F 
   397)     36081.4  Rx         050F  3  01 00 94 
   398)     36181.4  Rx         050F  3  01 00 97 
   399)     36181.7  Rx         050F  3  00 07 9B 
   400)     36281.4  Rx         050F  3  01 00 9B 
   401)     36381.4  Rx         050F  3  01 00 A2 
   402)     36481.4  Rx         050F  3  01 00 AF 
   403)     36581.4  Rx         050F  3  01 00 BA 
   404)     36681.3  Rx         050F  3  01 00 C4 
   405)     36781.4  Rx         050F  3  01 00 CF 
   406)     36881.3  Rx         050F  3  01 00 D6 
   407)     36981.3  Rx         050F  3  01 00 E0 
   408)     37081.2  Rx         050F  3  01 00 EE 
   409)     37181.2  Rx         050F  3  01 00 F8 
   410)     37181.5  Rx         050F  3  00 07 95 
   411)     37281.2  Rx         050F  3  01 01 01 
   412)     37381.2  Rx         050F  3  01 01 0A 
   413)     37481.2  Rx         050F  3  01 01 15 
   414)     37581.2  Rx         050F  3  01 01 26 
   415)     37681.2  Rx         050F  3  01 01 33 
   416)     37781.3  Rx         050F  3  01 01 3D 
   417)     37881.3  Rx         050F  3  01 01 44 
   418)     37981.3  Rx         050F  3  01 01 36 
   419)     38081.2  Rx         050F  3  01 01 1E 
   420)     38181.1  Rx         050F  3  01 01 05 
   421)     38181.4  Rx         050F  3  00 07 A2 
   422)     38281.2  Rx         050F  3  01 00 EE 
   423)     38381.2  Rx         050F  3  01 00 D9 
   424)     38481.2  Rx         050F  3  01 00 CA 
   425)     38581.2  Rx         050F  3  01 00 B6 
   426)     38681.2  Rx         050F  3  01 00 A7 
   427)     38781.2  Rx         050F  3  01 00 9E 
   428)     38881.1  Rx         050F  3  01 00 94 
   429)     38981.1  Rx         050F  3  01 00 8B 
   430)     39081.0  Rx         050F  3  01 00 83 
   431)     39181.0  Rx         050F  3  01 00 78 
   432)     39181.3  Rx         050F  3  00 07 A8 
   433)     39281.0  Rx         050F  3  01 00 6D 
   434)     39380.9  Rx         050F  3  01 00 65 
   435)     39481.0  Rx         050F  3  01 00 5E 
   436)     39581.0  Rx         050F  3  01 00 58 
   437)     39680.9  Rx         050F  3  01 00 51 
   438)     39781.0  Rx         050F  3  01 00 4A 
   439)     39880.9  Rx         050F  3  01 00 42 
   440)     39981.0  Rx         050F  3  01 00 3B 
   441)     40080.8  Rx         050F  3  01 00 35 
   442)     40180.9  Rx         050F  3  01 00 2F 
   443)     40181.2  Rx         050F  3  00 07 A5 
   444)     40280.8  Rx         050F  3  01 00 2B 
   445)     40380.8  Rx         050F  3  01 00 27 
   446)     40480.8  Rx         050F  3  01 00 22 
   447)     40580.8  Rx         050F  3  01 00 1B 
   448)     40680.7  Rx         050F  3  01 00 14 
   449)     40780.7  Rx         050F  3  01 00 0F 
   450)     40880.7  Rx         050F  3  01 00 0D 
   451)     40980.7  Rx         050F  3  01 00 0D 
   452)     41080.6  Rx         050F  3  01 00 10 
   453)     41180.6  Rx         050F  3  01 00 14 
   454)     41180.9  Rx         050F  3  00 07 B1 
   455)     41280.6  Rx         050F  3  01 00 1A 
   456)     41380.6  Rx         050F  3  01 00 20 
   457)     41480.6  Rx         050F  3  01 00 26 
   458)     41580.6  Rx         050F  3  01 00 2B 
   459)     41680.6  Rx         050F  3  01 00 2F 
   460)     41780.6  Rx         050F  3  01 00 34 
   461)     41880.6  Rx         050F  3  01 00 3A 
   462)     41980.6  Rx         050F  3  01 00 40 
   463)     42080.4  Rx         050F  3  01 00 47 
   464)     42180.5  Rx         050F  3  01 00 4D 
   465)     42180.8  Rx         050F  3  00 07 AD 
   466)     42280.4  Rx         050F  3  01 00 52 
   467)     42380.4  Rx         050F  3  01 00 5A 
   468)     42480.4  Rx         050F  3  01 00 5F 
   469)     42580.4  Rx         050F  3  01 00 66 
   470)     42680.4  Rx         050F  3  01 00 6E 
   471)     42780.4  Rx         050F  3  01 00 78 
   472)     42880.4  Rx         050F  3  01 00 7F 
   473)     42980.4  Rx         050F  3  01 00 85 
   474)     43080.3  Rx         050F  3  01 00 8A 
   475)     43180.3  Rx         050F  3  01 00 92 
   476)     43180.5  Rx         050F  3  00 07 AD 
   477)     43280.3  Rx         050F  3  01 00 97 
   478)     43380.3  Rx         050F  3  01 00 9B 
   479)     43480.2  Rx         050F  3  01 00 A6 
   480)     43580.3  Rx         050F  3  01 00 B5 
   481)     43680.2  Rx         050F  3  01 00 C2 
   482)     43780.2  Rx         050F  3  01 00 CF 
   483)     43880.2  Rx         050F  3  01 00 DB 
   484)     43980.2  Rx         050F  3  01 00 EA 
   485)     44080.1  Rx         050F  3  01 00 F8 
   486)     44180.1  Rx         050F  3  01 01 04 
   487)     44180.4  Rx         050F  3  00 07 AE 
   488)     44280.2  Rx         050F  3  01 01 12 
   489)     44380.1  Rx         050F  3  01 01 24 
   490)     44480.1  Rx         050F  3  01 01 34 
   491)     44580.1  Rx         050F  3  01 01 41 
   492)     44680.1  Rx         050F  3  01 01 4B 
   493)     44780.1  Rx         050F  3  01 01 55 
   494)     44880.1  Rx         050F  3  01 01 61 
   495)     44980.1  Rx         050F  3  01 01 71 
   496)     45080.0  Rx         050F  3  01 01 7D 
   497)     45180.0  Rx         050F  3  01 01 85 
   498)     45180.3  Rx         050F  3  00 07 B5 
   499)     45280.0  Rx         050F  3  01 01 8D 
   500)     45380.0  Rx         050F  3  01 01 96 
   501)     45480.0  Rx         050F  3  01 01 9E 
   502)     45580.0  Rx         050F  3  01 01 A5 
   503)     45680.1  Rx         050F  3  01 01 AB 
   504)     45780.2  Rx         050F  3  01 01 B0 
   505)     45880.1  Rx         050F  3  01 01 AF 
   506)     45980.1  Rx         050F  3  01 01 A8 
   507)     46080.0  Rx         050F  3  01 01 99 
   508)     46180.0  Rx         050F  3  01 01 84 
   509)     46180.3  Rx         050F  3  00 07 B4 
   510)     46280.0  Rx         050F  3  01 01 66 
   511)     46380.0  Rx         050F  3  01 01 4E 
   512)     46480.0  Rx         050F  3  01 01 2F 
   513)     46580.0  Rx         050F  3  01 01 13 
   514)     46680.0  Rx         050F  3  01 00 F3 
   515)     46780.0  Rx         050F  3  01 00 DC 
   516)     46880.0  Rx         050F  3  01 00 CA 
   517)     46980.0  Rx         050F  3  01 00 B4 
   518)     47079.9  Rx         050F  3  01 00 A5 
   519)     47179.9  Rx         050F  3  01 00 9B 
   520)     47180.2  Rx         050F  3  00 07 9D 
   521)     47279.9  Rx         050F  3  01 00 91 
   522)     47379.9  Rx         050F  3  01 00 89 
   523)     47479.9  Rx         050F  3  01 00 7F 
   524)     47579.9  Rx         050F  3  01 00 73 
   525)     47679.9  Rx         050F  3  01 00 69 
   526)     47779.9  Rx         050F  3  01 00 62 
   527)     47879.9  Rx         050F  3  01 00 5B 
   528)     47979.9  Rx         050F  3  01 00 55 
   529)     48079.8  Rx         050F  3  01 00 4E 
   530)     48179.8  Rx         050F  3  01 00 47 
   531)     48180.1  Rx         050F  3  00 07 A4 
   532)     48279.8  Rx         050F  3  01 00 3F 
   533)     48379.7  Rx         050F  3  01 00 38 
   534)     48479.8  Rx         050F  3  01 00 32 
   535)     48579.7  Rx         050F  3  01 00 2D 
   536)     48679.7  Rx         050F  3  01 00 29 
   537)     48779.7  Rx         050F  3  01 00 25 
   538)     48879.7  Rx         050F  3  01 00 1F 
   539)     48979.8  Rx         050F  3  01 00 18 
   540)     49079.5  Rx         050F  3  01 00 11 
   541)     49179.5  Rx         050F  3  01 00 0D 
   542)     49179.8  Rx         050F  3  00 07 A8 
   543)     49279.5  Rx         050F  3  01 00 0C 
   544)     49379.5  Rx         050F  3  01 00 11 
   545)     49479.5  Rx         050F  3  01 00 17 
   546)     49579.5  Rx         050F  3  01 00 1F 
   547)     49679.4  Rx         050F  3  01 00 25 
   548)     49779.5  Rx         050F  3  01 00 2C 
   549)     49879.4  Rx         050F  3  01 00 32 
   550)     49979.5  Rx         050F  3  01 00 39 
   551)     50079.3  Rx         050F  3  01 00 41 
   552)     50179.4  Rx         050F  3  01 00 4A 
   553)     50179.7  Rx         050F  3  00 07 A5 
   554)     50279.4  Rx         050F  3  01 00 52 
   555)     50379.4  Rx         050F  3  01 00 5A 
   556)     50479.4  Rx         050F  3  01 00 63 
   557)     50579.4  Rx         050F  3  01 00 6D 
   558)     50679.4  Rx         050F  3  01 00 79 
   559)     50779.4  Rx         050F  3  01 00 83 
   560)     50879.4  Rx         050F  3  01 00 8B 
   561)     50979.4  Rx         050F  3  01 00 93 
   562)     51079.4  Rx         050F  3  01 00 98 
   563)     51179.4  Rx         050F  3  01 00 9A 
   564)     51179.7  Rx         050F  3  00 07 AE 
   565)     51279.4  Rx         050F  3  01 00 99 
   566)     51379.3  Rx         050F  3  01 00 97 
   567)     51479.4  Rx         050F  3  01 00 92 
   568)     51579.3  Rx         050F  3  01 00 89 
   569)     51679.4  Rx         050F  3  01 00 81 
   570)     51779.3  Rx         050F  3  01 00 77 
   571)     51879.3  Rx         050F  3  01 00 6D 
   572)     51979.4  Rx         050F  3  01 00 65 
   573)     52079.2  Rx         050F  3  01 00 5E 
   574)     52179.2  Rx         050F  3  01 00 57 
   575)     52179.6  Rx         050F  3  00 07 BD 
   576)     52279.2  Rx         050F  3  01 00 51 
   577)     52379.3  Rx         050F  3  01 00 49 
   578)     52479.2  Rx         050F  3  01 00 42 
   579)     52579.3  Rx         050F  3  01 00 3B 
   580)     52679.2  Rx         050F  3  01 00 35 
   581)     52779.3  Rx         050F  3  01 00 31 
   582)     52879.3  Rx         050F  3  01 00 2C 
   583)     52979.2  Rx         050F  3  01 00 28 
   584)     53079.1  Rx         050F  3  01 00 25 
   585)     53179.1  Rx         050F  3  01 00 20 
   586)     53179.4  Rx         050F  3  00 07 C5 
   587)     53279.1  Rx         050F  3  01 00 1A 
   588)     53379.0  Rx         050F  3  01 00 14 
   589)     53479.0  Rx         050F  3  01 00 0F 
   590)     53579.0  Rx         050F  3  01 00 0E 
   591)     53679.0  Rx         050F  3  01 00 14 
   592)     53779.0  Rx         050F  3  01 00 1D 
   593)     53879.0  Rx         050F  3  01 00 25 
   594)     53978.9  Rx         050F  3  01 00 2C 
   595)     54078.8  Rx         050F  3  01 00 35 
   596)     54178.8  Rx         050F  3  01 00 40 
   597)     54179.1  Rx         050F  3  00 07 CE 
   598)     54278.8  Rx         050F  3  01 00 4A 
   599)     54378.8  Rx         050F  3  01 00 54 
   600)     54478.8  Rx         050F  3  01 00 5F 
   601)     54578.8  Rx         050F  3  01 00 6E 
   602)     54678.8  Rx         050F  3  01 00 7B 
   603)     54778.8  Rx         050F  3  01 00 85 
   604)     54878.8  Rx         050F  3  01 00 90 
   605)     54978.7  Rx         050F  3  01 00 9A 
   606)     55078.6  Rx         050F  3  01 00 B0 
   607)     55178.6  Rx         050F  3  01 00 C5 
   608)     55178.9  Rx         050F  3  00 07 D0 
   609)     55278.6  Rx         050F  3  01 00 DA 
   610)     55378.7  Rx         050F  3  01 00 F0 
   611)     55478.7  Rx         050F  3  01 00 FF 
   612)     55578.7  Rx         050F  3  01 00 F6 
   613)     55678.7  Rx         050F  3  01 00 E6 
   614)     55778.7  Rx         050F  3  01 00 D8 
   615)     55878.7  Rx         050F  3  01 00 CA 
   616)     55978.7  Rx         050F  3  01 00 B9 
   617)     56078.5  Rx         050F  3  01 00 A9 
   618)     56178.5  Rx         050F  3  01 00 9F 
   619)     56178.9  Rx         050F  3  00 07 D7 
   620)     56278.5  Rx         050F  3  01 00 96 
   621)     56378.5  Rx         050F  3  01 00 8C 
   622)     56478.6  Rx         050F  3  01 00 83 
   623)     56578.5  Rx         050F  3  01 00 78 
   624)     56678.6  Rx         050F  3  01 00 6E 
   625)     56778.5  Rx         050F  3  01 00 64 
   626)     56878.5  Rx         050F  3  01 00 5E 
   627)     56978.5  Rx         050F  3  01 00 57 
   628)     57078.4  Rx         050F  3  01 00 50 
   629)     57178.4  Rx         050F  3  01 00 49 
   630)     57178.7  Rx         050F  3  00 07 D6 
   631)     57278.4  Rx         050F  3  01 00 42 
   632)     57378.4  Rx         050F  3  01 00 3B 
   633)     57478.4  Rx         050F  3  01 00 35 
   634)     57578.4  Rx         050F  3  01 00 30 
   635)     57678.4  Rx         050F  3  01 00 2B 
   636)     57778.4  Rx         050F  3  01 00 28 
   637)     57878.4  Rx         050F  3  01 00 24 
   638)     57978.3  Rx         050F  3  01 00 1F 
   639)     58078.2  Rx         050F  3  01 00 19 
   640)     58178.1  Rx         050F  3  01 00 12 
   641)     58178.4  Rx         050F  3  00 07 DD 
   642)     58278.1  Rx         050F  3  01 00 0E 
   643)     58378.1  Rx         050F  3  01 00 15 
   644)     58478.1  Rx         050F  3  01 00 1F 
   645)     58578.1  Rx         050F  3  01 00 28 
   646)     58678.1  Rx         050F  3  01 00 31 
   647)     58778.1  Rx         050F  3  01 00 3E 
   648)     58878.0  Rx         050F  3  01 00 4B 
   649)     58978.0  Rx         050F  3  01 00 5A 
   650)     59077.9  Rx         050F  3  01 00 6B 
   651)     59177.9  Rx         050F  3  01 00 7B 
   652)     59178.2  Rx         050F  3  00 07 E0 
   653)     59277.9  Rx         050F  3  01 00 89 
   654)     59377.9  Rx         050F  3  01 00 98 
   655)     59477.9  Rx         050F  3  01 00 B0 
   656)     59577.9  Rx         050F  3  01 00 CA 
   657)     59677.9  Rx         050F  3  01 00 E7 
   658)     59777.9  Rx         050F  3  01 01 02 
   659)     59877.8  Rx         050F  3  01 01 27 
   660)     59977.8  Rx         050F  3  01 01 40 
   661)     60077.7  Rx         050F  3  01 01 5B 
   662)     60177.8  Rx         050F  3  01 01 73 
   663)     60178.1  Rx         050F  3  00 07 E7 
   664)     60277.9  Rx         050F  3  01 01 80 
   665)     60377.8  Rx         050F  3  01 01 77 
   666)     60477.8  Rx         050F  3  01 01 64 
   667)     60577.8  Rx         050F  3  01 01 50 
   668)     60677.8  Rx         050F  3  01 01 2F 
   669)     60777.8  Rx         050F  3  01 01 15 
   670)     60877.9  Rx         050F  3  01 00 F9 
   671)     60977.9  Rx         050F  3  01 00 E1 
   672)     61077.7  Rx         050F  3  01 00 CE 
   673)     61177.8  Rx         050F  3  01 00 B6 
   674)     61178.1  Rx         050F  3  00 07 EE 
   675)     61277.8  Rx         050F  3  01 00 A7 
   676)     61377.8  Rx         050F  3  01 00 9D 
   677)     61477.8  Rx         050F  3  01 00 93 
   678)     61577.7  Rx         050F  3  01 00 88 
   679)     61677.7  Rx         050F  3  01 00 7E 
   680)     61777.7  Rx         050F  3  01 00 73 
   681)     61877.8  Rx         050F  3  01 00 69 
   682)     61977.7  Rx         050F  3  01 00 61 
   683)     62077.6  Rx         050F  3  01 00 5A 
   684)     62177.6  Rx         050F  3  01 00 53 
   685)     62177.9  Rx         050F  3  00 07 FE 
   686)     62277.6  Rx         050F  3  01 00 4D 
   687)     62377.6  Rx         050F  3  01 00 45 
   688)     62477.7  Rx         050F  3  01 00 3D 
   689)     62577.6  Rx         050F  3  01 00 37 
   690)     62677.7  Rx         050F  3  01 00 32 
   691)     62777.7  Rx         050F  3  01 00 2D 
   692)     62877.7  Rx         050F  3  01 00 29 
   693)     62977.7  Rx         050F  3  01 00 25 
   694)     63077.6  Rx         050F  3  01 00 20 
   695)     63177.6  Rx         050F  3  01 00 1B 
   696)     63177.9  Rx         050F  3  00 07 FD 
   697)     63277.5  Rx         050F  3  01 00 13 
   698)     63377.5  Rx         050F  3  01 00 0E 
   699)     63477.5  Rx         050F  3  01 00 18 
   700)     63577.4  Rx         050F  3  01 00 22 
   701)     63677.5  Rx         050F  3  01 00 2D 
   702)     63777.4  Rx         050F  3  01 00 3C 
   703)     63877.4  Rx         050F  3  01 00 4D 
   704)     63977.4  Rx         050F  3  01 00 60 
   705)     64077.3  Rx         050F  3  01 00 75 
   706)     64177.3  Rx         050F  3  01 00 89 
   707)     64177.6  Rx         050F  3  00 07 FE 
   708)     64277.3  Rx         050F  3  01 00 A2 
   709)     64377.3  Rx         050F  3  01 00 C1 
   710)     64477.3  Rx         050F  3  01 00 E4 
   711)     64577.3  Rx         050F  3  01 01 0A 
   712)     64677.3  Rx         050F  3  01 01 33 
   713)     64777.2  Rx         050F  3  01 01 54 
   714)     64877.3  Rx         050F  3  01 01 73 
   715)     64977.2  Rx         050F  3  01 01 8C 
   716)     65077.1  Rx         050F  3  01 01 A2 
   717)     65177.1  Rx         050F  3  01 01 B3 
   718)     65177.4  Rx         050F  3  00 07 FD 
   719)     65277.3  Rx         050F  3  01 01 C2 
   720)     65377.2  Rx         050F  3  01 01 CC 
   721)     65477.3  Rx         050F  3  01 01 D0 
   722)     65577.2  Rx         050F  3  01 01 CE 
   723)     65677.2  Rx         050F  3  01 01 C8 
   724)     65777.2  Rx         050F  3  01 01 BE 
   725)     65877.2  Rx         050F  3  01 01 B1 
   726)     65977.2  Rx         050F  3  01 01 9E 
   727)     66077.2  Rx         050F  3  01 01 8A 
   728)     66177.2  Rx         050F  3  01 01 6F 
   729)     66177.5  Rx         050F  3  00 07 FF 
   730)     66277.2  Rx         050F  3  01 01 59 
   731)     66377.2  Rx         050F  3  01 01 3B 
   732)     66477.2  Rx         050F  3  01 01 1C 
   733)     66577.2  Rx         050F  3  01 00 FE 
   734)     66677.2  Rx         050F  3  01 00 E3 
   735)     66777.2  Rx         050F  3  01 00 CF 
   736)     66877.2  Rx         050F  3  01 00 B5 
   737)     66977.2  Rx         050F  3  01 00 A6 
   738)     67077.1  Rx         050F  3  01 00 9C 
   739)     67177.1  Rx         050F  3  01 00 91 
   740)     67177.4  Rx         050F  3  00 08 07 
   741)     67277.1  Rx         050F  3  01 00 87 
   742)     67377.2  Rx         050F  3  01 00 7C 
   743)     67477.1  Rx         050F  3  01 00 70 
   744)     67577.1  Rx         050F  3  01 00 67 
   745)     67677.1  Rx         050F  3  01 00 5F 
   746)     67777.2  Rx         050F  3  01 00 58 
   747)     67877.2  Rx         050F  3  01 00 51 
   748)     67977.1  Rx         050F  3  01 00 4B 
   749)     68077.1  Rx         050F  3  01 00 43 
   750)     68177.0  Rx         050F  3  01 00 3B 
   751)     68177.4  Rx         050F  3  00 08 0C 
   752)     68277.0  Rx         050F  3  01 00 35 
   753)     68377.0  Rx         050F  3  01 00 30 
   754)     68477.0  Rx         050F  3  01 00 2C 
   755)     68577.0  Rx         050F  3  01 00 28 
   756)     68677.0  Rx         050F  3  01 00 24 
   757)     68777.0  Rx         050F  3  01 00 1E 
   758)     68877.1  Rx         050F  3  01 00 18 
   759)     68976.9  Rx         050F  3  01 00 10 
   760)     69076.9  Rx         050F  3  01 00 15 
   761)     69176.9  Rx         050F  3  01 00 22 
   762)     69177.2  Rx         050F  3  00 08 11 
   763)     69276.9  Rx         050F  3  01 00 30 
   764)     69376.9  Rx         050F  3  01 00 42 
   765)     69476.9  Rx         050F  3  01 00 5B 
   766)     69576.9  Rx         050F  3  01 00 75 
   767)     69676.9  Rx         050F  3  01 00 8E 
   768)     69776.9  Rx         050F  3  01 00 B3 
   769)     69876.9  Rx         050F  3  01 00 E3 
   770)     69976.9  Rx         050F  3  01 01 15 
   771)     70076.9  Rx         050F  3  01 01 40 
   772)     70176.9  Rx         050F  3  01 01 68 
   773)     70177.2  Rx         050F  3  00 08 29 
   774)     70276.9  Rx         050F  3  01 01 89 
   775)     70376.9  Rx         050F  3  01 01 A6 
   776)     70476.9  Rx         050F  3  01 01 BB 
   777)     70576.9  Rx         050F  3  01 01 D0 
   778)     70676.9  Rx         050F  3  01 01 E8 
   779)     70776.9  Rx         050F  3  01 02 04 
   780)     70876.9  Rx         050F  3  01 02 23 
   781)     70977.0  Rx         050F  3  01 02 47 
   782)     71077.0  Rx         050F  3  01 02 59 
   783)     71177.0  Rx         050F  3  01 02 4A 
   784)     71177.3  Rx         050F  3  00 08 2D 
   785)     71277.0  Rx         050F  3  01 02 3B 
   786)     71377.0  Rx         050F  3  01 02 2A 
   787)     71477.0  Rx         050F  3  01 02 17 
   788)     71577.0  Rx         050F  3  01 02 05 
   789)     71677.0  Rx         050F  3  01 01 F3 
   790)     71777.0  Rx         050F  3  01 01 E1 
   791)     71876.9  Rx         050F  3  01 01 D5 
   792)     71977.0  Rx         050F  3  01 01 CB 
   793)     72077.0  Rx         050F  3  01 01 C0 
   794)     72177.0  Rx         050F  3  01 01 B3 
   795)     72177.3  Rx         050F  3  00 08 32 
   796)     72277.0  Rx         050F  3  01 01 A3 
   797)     72377.0  Rx         050F  3  01 01 91 
   798)     72477.0  Rx         050F  3  01 01 74 
   799)     72577.0  Rx         050F  3  01 01 5B 
   800)     72677.0  Rx         050F  3  01 01 3D 
   801)     72776.9  Rx         050F  3  01 01 1C 
   802)     72877.0  Rx         050F  3  01 00 FC 
   803)     72976.9  Rx         050F  3  01 00 DE 
   804)     73076.9  Rx         050F  3  01 00 C7 
   805)     73176.9  Rx         050F  3  01 00 B0 
   806)     73177.3  Rx         050F  3  00 08 28 
   807)     73277.0  Rx         050F  3  01 00 A2 
   808)     73376.9  Rx         050F  3  01 00 95 
   809)     73476.9  Rx         050F  3  01 00 8B 
   810)     73576.9  Rx         050F  3  01 00 80 
   811)     73676.9  Rx         050F  3  01 00 73 
   812)     73776.9  Rx         050F  3  01 00 68 
   813)     73876.9  Rx         050F  3  01 00 5F 
   814)     73976.9  Rx         050F  3  01 00 58 
   815)     74076.9  Rx         050F  3  01 00 51 
   816)     74176.9  Rx         050F  3  01 00 4A 
   817)     74177.2  Rx         050F  3  00 08 29 
   818)     74276.9  Rx         050F  3  01 00 41 
   819)     74376.9  Rx         050F  3  01 00 3A 
   820)     74476.9  Rx         050F  3  01 00 35 
   821)     74576.9  Rx         050F  3  01 00 30 
   822)     74676.9  Rx         050F  3  01 00 2B 
   823)     74776.9  Rx         050F  3  01 00 28 
   824)     74876.9  Rx         050F  3  01 00 24 
   825)     74976.9  Rx         050F  3  01 00 20 
   826)     75076.9  Rx         050F  3  01 00 1B 
   827)     75176.8  Rx         050F  3  01 00 13 
   828)     75177.1  Rx         050F  3  00 08 30 
   829)     75276.8  Rx         050F  3  01 00 10 
   830)     75376.8  Rx         050F  3  01 00 22 
   831)     75476.8  Rx         050F  3  01 00 33 
   832)     75576.8  Rx         050F  3  01 00 4E 
   833)     75676.8  Rx         050F  3  01 00 6F 
   834)     75776.8  Rx         050F  3  01 00 94 
   835)     75876.8  Rx         050F  3  01 00 C8 
   836)     75976.8  Rx         050F  3  01 01 0A 
   837)     76076.9  Rx         050F  3  01 01 40 
   838)     76176.8  Rx         050F  3  01 01 6E 
   839)     76177.1  Rx         050F  3  00 08 39 
   840)     76276.9  Rx         050F  3  01 01 94 
   841)     76376.8  Rx         050F  3  01 01 B2 
   842)     76476.9  Rx         050F  3  01 01 D2 
   843)     76576.8  Rx         050F  3  01 01 F3 
   844)     76676.9  Rx         050F  3  01 02 1A 
   845)     76776.8  Rx         050F  3  01 02 4C 
   846)     76876.9  Rx         050F  3  01 02 94 
   847)     76976.9  Rx         050F  3  01 02 D6 
   848)     77076.9  Rx         050F  3  01 03 0C 
   849)     77177.0  Rx         050F  3  01 03 3B 
   850)     77177.3  Rx         050F  3  00 08 3E 
   851)     77277.0  Rx         050F  3  01 03 5D 
   852)     77377.0  Rx         050F  3  01 03 6E 
   853)     77477.0  Rx         050F  3  01 03 69 
   854)     77577.0  Rx         050F  3  01 03 5C 
   855)     77677.0  Rx         050F  3  01 03 40 
   856)     77777.0  Rx         050F  3  01 03 20 
   857)     77877.1  Rx         050F  3  01 02 FB 
   858)     77977.0  Rx         050F  3  01 02 DA 
   859)     78077.0  Rx         050F  3  01 02 B3 
   860)     78177.1  Rx         050F  3  01 02 89 
   861)     78177.4  Rx         050F  3  00 08 48 
   862)     78277.0  Rx         050F  3  01 02 6A 
   863)     78377.1  Rx         050F  3  01 02 4E 
   864)     78477.1  Rx         050F  3  01 02 34 
   865)     78577.1  Rx         050F  3  01 02 1D 
   866)     78677.1  Rx         050F  3  01 02 08 
   867)     78777.1  Rx         050F  3  01 01 F8 
   868)     78877.1  Rx         050F  3  01 01 E4 
   869)     78977.1  Rx         050F  3  01 01 D4 
   870)     79077.1  Rx         050F  3  01 01 C7 
   871)     79177.0  Rx         050F  3  01 01 B9 
   872)     79177.3  Rx         050F  3  00 08 5B 
   873)     79277.1  Rx         050F  3  01 01 AA 
   874)     79377.1  Rx         050F  3  01 01 98 
   875)     79477.1  Rx         050F  3  01 01 7E 
   876)     79577.1  Rx         050F  3  01 01 64 
   877)     79677.1  Rx         050F  3  01 01 49 
   878)     79777.1  Rx         050F  3  01 01 27 
   879)     79877.1  Rx         050F  3  01 01 06 
   880)     79977.1  Rx         050F  3  01 00 E5 
   881)     80077.0  Rx         050F  3  01 00 CD 
   882)     80177.0  Rx         050F  3  01 00 B4 
   883)     80177.3  Rx         050F  3  00 08 5E 
   884)     80277.1  Rx         050F  3  01 00 A4 
   885)     80377.0  Rx         050F  3  01 00 97 
   886)     80477.0  Rx         050F  3  01 00 8C 
   887)     80577.0  Rx         050F  3  01 00 80 
   888)     80677.0  Rx         050F  3  01 00 72 
   889)     80777.0  Rx         050F  3  01 00 67 
   890)     80877.1  Rx         050F  3  01 00 5D 
   891)     80977.0  Rx         050F  3  01 00 55 
   892)     81077.1  Rx         050F  3  01 00 4F 
   893)     81177.1  Rx         050F  3  01 00 47 
   894)     81177.4  Rx         050F  3  00 08 5C 
   895)     81277.1  Rx         050F  3  01 00 3E 
   896)     81377.1  Rx         050F  3  01 00 38 
   897)     81477.1  Rx         050F  3  01 00 33 
   898)     81577.1  Rx         050F  3  01 00 2E 
   899)     81677.1  Rx         050F  3  01 00 2A 
   900)     81777.1  Rx         050F  3  01 00 27 
   901)     81877.1  Rx         050F  3  01 00 23 
   902)     81977.1  Rx         050F  3  01 00 1E 
   903)     82077.1  Rx         050F  3  01 00 1A 
   904)     82097.1  Rx         0503  1  02 
   905)     82200.1  Rx         050F  3  01 00 13 
   906)     82200.3  Rx         050F  3  00 08 67 
   907)     82300.0  Rx         050F  3  01 00 11 
   908)     82400.1  Rx         050F  3  01 00 0F 
   909)     82500.0  Rx         050F  3  01 00 0F 
   910)     82600.0  Rx         050F  3  01 00 0F 
   911)     82700.0  Rx         050F  3  01 00 0F 
   912)     82800.0  Rx         050F  3  01 00 0F 
   913)     82900.0  Rx         050F  3  01 00 10 
   914)     83000.0  Rx         050F  3  01 00 10 
   915)     83100.0  Rx         050F  3  01 00 10 
   916)     83200.0  Rx         050F  3  01 00 10 
   917)     83200.2  Rx         050F  3  00 08 75 
   918)     83299.9  Rx         050F  3  01 00 10 
   919)     83399.9  Rx         050F  3  01 00 10 
   920)     83499.9  Rx         050F  3  01 00 11 
   921)     83599.9  Rx         050F  3  01 00 11 
   922)     83699.8  Rx         050F  3  01 00 11 
   923)     83799.8  Rx         050F  3  01 00 11 
   924)     83899.8  Rx         050F  3  01 00 12 
   925)     83999.8  Rx         050F  3  01 00 12 
   926)     84099.8  Rx         050F  3  01 00 12 
   927)     84199.8  Rx         050F  3  01 00 13 
   928)     84200.1  Rx         050F  3  00 08 80 
   929)     84299.8  Rx         050F  3  01 00 13 
   930)     84399.8  Rx         050F  3  01 00 13 
   931)     84499.8  Rx         050F  3  01 00 13 
   932)     84599.7  Rx         050F  3  01 00 13 
   933)     84699.7  Rx         050F  3  01 00 14 
   934)     84799.7  Rx         050F  3  01 00 14 
   935)     84899.7  Rx         050F  3  01 00 14 
   936)     84999.7  Rx         050F  3  01 00 14 
   937)     85099.7  Rx         050F  3  01 00 15 
   938)     85199.7  Rx         050F  3  01 00 15 
   939)     85200.0  Rx         050F  3  00 08 85 
   940)     85299.6  Rx         050F  3  01 00 15 
   941)     85399.6  Rx         050F  3  01 00 15 
   942)     85499.6  Rx         050F  3  01 00 15 
   943)     85599.6  Rx         050F  3  01 00 15 
   944)     85699.6  Rx         050F  3  01 00 16 
   945)     85799.6  Rx         050F  3  01 00 16 
   946)     85899.5  Rx         050F  3  01 00 16 
   947)     85999.5  Rx         050F  3  01 00 16 
   948)     86099.6  Rx         050F  3  01 00 17 
   949)     86199.5  Rx         050F  3  01 00 17 
   950)     86199.8  Rx         050F  3  00 08 82 
   951)     86299.5  Rx         050F  3  01 00 17 
   952)     86399.5  Rx         050F  3  01 00 17 
   953)     86499.4  Rx         050F  3  01 00 17 
   954)     86599.4  Rx         050F  3  01 00 17 
   955)     86699.4  Rx         050F  3  01 00 17 
   956)     86799.4  Rx         050F  3  01 00 17 
   957)     86899.4  Rx         050F  3  01 00 18 
   958)     86999.4  Rx         050F  3  01 00 18 
   959)     87099.4  Rx         050F  3  01 00 18 
   960)     87199.4  Rx         050F  3  01 00 18 
   961)     87199.7  Rx         050F  3  00 08 86 
   962)     87299.4  Rx         050F  3  01 00 18 
   963)     87399.3  Rx         050F  3  01 00 18 
   964)     87499.3  Rx         050F  3  01 00 18 
   965)     87599.3  Rx         050F  3  01 00 18 
   966)     87699.3  Rx         050F  3  01 00 19 
   967)     87799.3  Rx         050F  3  01 00 19 
   968)     87899.3  Rx         050F  3  01 00 19 
   969)     87999.3  Rx         050F  3  01 00 19 
   970)     88099.2  Rx         050F  3  01 00 19 
   971)     88199.2  Rx         050F  3  01 00 1A 
   972)     88199.5  Rx         050F  3  00 08 8A 
   973)     88299.2  Rx         050F  3  01 00 1A 
   974)     88399.1  Rx         050F  3  01 00 1A 
   975)     88499.1  Rx         050F  3  01 00 1A 
   976)     88599.1  Rx         050F  3  01 00 1A 
   977)     88699.0  Rx         050F  3  01 00 1A 
   978)     88799.0  Rx         050F  3  01 00 1A 
   979)     88899.0  Rx         050F  3  01 00 1A 
   980)     88999.0  Rx         050F  3  01 00 1B 
   981)     89099.0  Rx         050F  3  01 00 1B 
   982)     89199.0  Rx         050F  3  01 00 1B 
   983)     89199.3  Rx         050F  3  00 08 89 
   984)     89299.0  Rx         050F  3  01 00 1B 
   985)     89398.9  Rx         050F  3  01 00 1B 
   986)     89498.9  Rx         050F  3  01 00 1B 
   987)     89598.9  Rx         050F  3  01 00 1B 
   988)     89698.9  Rx         050F  3  01 00 1B 
   989)     89798.8  Rx         050F  3  01 00 1C 
   990)     89898.8  Rx         050F  3  01 00 1C 
   991)     89998.8  Rx         050F  3  01 00 1C 
   992)     90098.8  Rx         050F  3  01 00 1C 
   993)     90198.8  Rx         050F  3  01 00 1D 
   994)     90199.1  Rx         050F  3  00 08 8C 
   995)     90298.8  Rx         050F  3  01 00 1D 
   996)     90398.7  Rx         050F  3  01 00 1D 
   997)     90498.7  Rx         050F  3  01 00 1D 
   998)     90598.7  Rx         050F  3  01 00 1D 
   999)     90698.6  Rx         050F  3  01 00 1D 
  1000)     90798.6  Rx         050F  3  01 00 1E 
  1001)     90898.6  Rx         050F  3  01 00 1E 
  1002)     90998.6  Rx         050F  3  01 00 1E 
  1003)     91098.6  Rx         050F  3  01 00 1E 
  1004)     91198.5  Rx         050F  3  01 00 1E 
  1005)     91198.8  Rx         050F  3  00 08 91 
  1006)     91298.5  Rx         050F  3  01 00 1F 
  1007)     91398.5  Rx         050F  3  01 00 1F 
  1008)     91498.5  Rx         050F  3  01 00 1F 
  1009)     91598.5  Rx         050F  3  01 00 1F 
  1010)     91698.4  Rx         050F  3  01 00 1F 
  1011)     91798.4  Rx         050F  3  01 00 20 
  1012)     91898.4  Rx         050F  3  01 00 20 
  1013)     91998.4  Rx         050F  3  01 00 20 
  1014)     92098.3  Rx         050F  3  01 00 20 
  1015)     92198.3  Rx         050F  3  01 00 20 
  1016)     92198.6  Rx         050F  3  00 08 92 
  1017)     92298.3  Rx         050F  3  01 00 21 
  1018)     92398.3  Rx         050F  3  01 00 21 
  1019)     92498.3  Rx         050F  3  01 00 21 
  1020)     92598.3  Rx         050F  3  01 00 21 
  1021)     92698.2  Rx         050F  3  01 00 22 
  1022)     92798.2  Rx         050F  3  01 00 22 
  1023)     92898.2  Rx         050F  3  01 00 22 
  1024)     92998.2  Rx         050F  3  01 00 22 
  1025)     93098.1  Rx         050F  3  01 00 22 
  1026)     93198.1  Rx         050F  3  01 00 22 
  1027)     93198.4  Rx         050F  3  00 08 97 
  1028)     93298.1  Rx         050F  3  01 00 23 
  1029)     93398.1  Rx         050F  3  01 00 23 
  1030)     93498.1  Rx         050F  3  01 00 23 
  1031)     93598.1  Rx         050F  3  01 00 23 
  1032)     93698.0  Rx         050F  3  01 00 23 
  1033)     93798.0  Rx         050F  3  01 00 23 
  1034)     93898.0  Rx         050F  3  01 00 23 
  1035)     93998.0  Rx         050F  3  01 00 23 
  1036)     94098.0  Rx         050F  3  01 00 23 
  1037)     94198.0  Rx         050F  3  01 00 24 
  1038)     94198.3  Rx         050F  3  00 08 97 
  1039)     94297.9  Rx         050F  3  01 00 24 
  1040)     94397.9  Rx         050F  3  01 00 24 
  1041)     94497.9  Rx         050F  3  01 00 24 
  1042)     94597.9  Rx         050F  3  01 00 24 
  1043)     94697.9  Rx         050F  3  01 00 24 
  1044)     94797.9  Rx         050F  3  01 00 24 
  1045)     94897.8  Rx         050F  3  01 00 24 
  1046)     94997.9  Rx         050F  3  01 00 24 
  1047)     95097.9  Rx         050F  3  01 00 24 
  1048)     95197.8  Rx         050F  3  01 00 25 
  1049)     95198.1  Rx         050F  3  00 08 A1 
  1050)     95297.8  Rx         050F  3  01 00 25 
  1051)     95397.8  Rx         050F  3  01 00 25 
  1052)     95497.7  Rx         050F  3  01 00 25 
  1053)     95597.7  Rx         050F  3  01 00 25 
  1054)     95697.7  Rx         050F  3  01 00 25 
  1055)     95797.7  Rx         050F  3  01 00 25 
  1056)     95897.7  Rx         050F  3  01 00 25 
  1057)     95997.7  Rx         050F  3  01 00 25 
  1058)     96097.7  Rx         050F  3  01 00 26 
  1059)     96197.7  Rx         050F  3  01 00 25 
  1060)     96198.0  Rx         050F  3  00 08 A2 
  1061)     96297.7  Rx         050F  3  01 00 26 
  1062)     96397.7  Rx         050F  3  01 00 26 
  1063)     96497.6  Rx         050F  3  01 00 26 
  1064)     96597.6  Rx         050F  3  01 00 26 
  1065)     96697.6  Rx         050F  3  01 00 26 
  1066)     96797.6  Rx         050F  3  01 00 26 
  1067)     96897.5  Rx         050F  3  01 00 26 
  1068)     96997.5  Rx         050F  3  01 00 26 
  1069)     97097.5  Rx         050F  3  01 00 26 
  1070)     97197.5  Rx         050F  3  01 00 26 
  1071)     97197.8  Rx         050F  3  00 08 A6 
  1072)     97297.5  Rx         050F  3  01 00 27 
  1073)     97397.4  Rx         050F  3  01 00 27 
  1074)     97497.4  Rx         050F  3  01 00 27 
  1075)     97597.4  Rx         050F  3  01 00 27 
  1076)     97697.4  Rx         050F  3  01 00 27 
  1077)     97797.4  Rx         050F  3  01 00 27 
  1078)     97897.4  Rx         050F  3  01 00 27 
  1079)     97997.4  Rx         050F  3  01 00 27 
  1080)     98097.3  Rx         050F  3  01 00 27 
  1081)     98197.3  Rx         050F  3  01 00 27 
  1082)     98197.6  Rx         050F  3  00 08 A0 
  1083)     98297.3  Rx         050F  3  01 00 27 
  1084)     98397.3  Rx         050F  3  01 00 27 
  1085)     98497.3  Rx         050F  3  01 00 28 
  1086)     98597.2  Rx         050F  3  01 00 28 
  1087)     98697.2  Rx         050F  3  01 00 28 
  1088)     98797.2  Rx         050F  3  01 00 28 
  1089)     98897.2  Rx         050F  3  01 00 28 
  1090)     98997.2  Rx         050F  3  01 00 28 
  1091)     99097.2  Rx         050F  3  01 00 28 
  1092)     99197.1  Rx         050F  3  01 00 28 
  1093)     99197.4  Rx         050F  3  00 08 A5 
  1094)     99297.1  Rx         050F  3  01 00 28 
  1095)     99397.1  Rx         050F  3  01 00 28 
  1096)     99497.1  Rx         050F  3  01 00 28 
  1097)     99597.0  Rx         050F  3  01 00 28 
  1098)     99697.0  Rx         050F  3  01 00 28 
  1099)     99797.1  Rx         050F  3  01 00 28 
  1100)     99897.0  Rx         050F  3  01 00 28 
  1101)     99997.0  Rx         050F  3  01 00 29 
  1102)    100097.0  Rx         050F  3  01 00 29 
  1103)    100197.0  Rx         050F  3  01 00 29 
  1104)    100197.3  Rx         050F  3  00 08 A2 
  1105)    100297.0  Rx         050F  3  01 00 29 
  1106)    100397.0  Rx         050F  3  01 00 29 
  1107)    100497.0  Rx         050F  3  01 00 29 
  1108)    100597.0  Rx         050F  3  01 00 29 
  1109)    100697.0  Rx         050F  3  01 00 29 
  1110)    100796.9  Rx         050F  3  01 00 29 
  1111)    100896.9  Rx         050F  3  01 00 29 
  1112)    100996.9  Rx         050F  3  01 00 29 
  1113)    101096.9  Rx         050F  3  01 00 2A 
  1114)    101196.8  Rx         050F  3  01 00 2A 
  1115)    101197.1  Rx         050F  3  00 08 AC 
  1116)    101296.8  Rx         050F  3  01 00 2A 
  1117)    101396.8  Rx         050F  3  01 00 2A 
  1118)    101496.8  Rx         050F  3  01 00 2A 
  1119)    101596.8  Rx         050F  3  01 00 2A 
  1120)    101696.7  Rx         050F  3  01 00 2A 
  1121)    101796.8  Rx         050F  3  01 00 2A 
  1122)    101896.8  Rx         050F  3  01 00 2A 
  1123)    101996.8  Rx         050F  3  01 00 2A 
  1124)    102096.7  Rx         050F  3  01 00 2A 
  1125)    102196.7  Rx         050F  3  01 00 2A 
  1126)    102197.0  Rx         050F  3  00 08 A6 
  1127)    102296.7  Rx         050F  3  01 00 2A 
  1128)    102396.7  Rx         050F  3  01 00 2B 
  1129)    102496.7  Rx         050F  3  01 00 2A 
  1130)    102596.7  Rx         050F  3  01 00 2B 
  1131)    102696.6  Rx         050F  3  01 00 2B 
  1132)    102796.6  Rx         050F  3  01 00 2B 
  1133)    102896.6  Rx         050F  3  01 00 2B 
  1134)    102996.6  Rx         050F  3  01 00 2B 
  1135)    103096.6  Rx         050F  3  01 00 2B 
  1136)    103196.6  Rx         050F  3  01 00 2B 
  1137)    103196.9  Rx         050F  3  00 08 B0 
  1138)    103296.6  Rx         050F  3  01 00 2B 
  1139)    103396.6  Rx         050F  3  01 00 2B 
  1140)    103496.6  Rx         050F  3  01 00 2B 
  1141)    103596.5  Rx         050F  3  01 00 2B 
  1142)    103696.5  Rx         050F  3  01 00 2B 
  1143)    103796.5  Rx         050F  3  01 00 2B 
  1144)    103896.5  Rx         050F  3  01 00 2B 
  1145)    103996.5  Rx         050F  3  01 00 2C 
  1146)    104096.5  Rx         050F  3  01 00 2B 
  1147)    104196.5  Rx         050F  3  01 00 2C 
  1148)    104196.8  Rx         050F  3  00 08 B4 
  1149)    104296.5  Rx         050F  3  01 00 2C 
  1150)    104396.5  Rx         050F  3  01 00 2C 
  1151)    104496.4  Rx         050F  3  01 00 2C 
  1152)    104596.4  Rx         050F  3  01 00 2C 
  1153)    104696.4  Rx         050F  3  01 00 2C 
  1154)    104796.4  Rx         050F  3  01 00 2C 
  1155)    104896.4  Rx         050F  3  01 00 2C 
  1156)    104996.4  Rx         050F  3  01 00 2C 
  1157)    105096.4  Rx         050F  3  01 00 2C 
  1158)    105196.4  Rx         050F  3  01 00 2C 
  1159)    105196.7  Rx         050F  3  00 08 B7 
  1160)    105296.4  Rx         050F  3  01 00 2C 
  1161)    105396.3  Rx         050F  3  01 00 2C 
  1162)    105496.3  Rx         050F  3  01 00 2C 
  1163)    105596.3  Rx         050F  3  01 00 2C 
  1164)    105696.3  Rx         050F  3  01 00 2C 
  1165)    105796.3  Rx         050F  3  01 00 2C 
  1166)    105896.2  Rx         050F  3  01 00 2D 
  1167)    105996.2  Rx         050F  3  01 00 2D 
  1168)    106096.2  Rx         050F  3  01 00 2D 
  1169)    106196.2  Rx         050F  3  01 00 2D 
  1170)    106196.5  Rx         050F  3  00 08 B9 
  1171)    106296.2  Rx         050F  3  01 00 2D 
  1172)    106396.1  Rx         050F  3  01 00 2D 
  1173)    106496.2  Rx         050F  3  01 00 2D 
  1174)    106596.1  Rx         050F  3  01 00 2D 
  1175)    106696.1  Rx         050F  3  01 00 2D 
  1176)    106796.1  Rx         050F  3  01 00 2D 
  1177)    106896.0  Rx         050F  3  01 00 2D 
  1178)    106996.0  Rx         050F  3  01 00 2D 
  1179)    107096.0  Rx         050F  3  01 00 2D 
  1180)    107196.0  Rx         050F  3  01 00 2D 
  1181)    107196.3  Rx         050F  3  00 08 B8 
  1182)    107295.9  Rx         050F  3  01 00 2D 
  1183)    107395.9  Rx         050F  3  01 00 2D 
  1184)    107495.9  Rx         050F  3  01 00 2D 
  1185)    107595.9  Rx         050F  3  01 00 2D 
  1186)    107695.8  Rx         050F  3  01 00 2E 
  1187)    107795.8  Rx         050F  3  01 00 2E 
  1188)    107895.8  Rx         050F  3  01 00 2E 
  1189)    107995.8  Rx         050F  3  01 00 2E 
  1190)    108095.8  Rx         050F  3  01 00 2E 
  1191)    108195.8  Rx         050F  3  01 00 2E 
  1192)    108196.1  Rx         050F  3  00 08 C0 
  1193)    108295.7  Rx         050F  3  01 00 2E 
  1194)    108395.7  Rx         050F  3  01 00 2E 
  1195)    108495.7  Rx         050F  3  01 00 2E 
  1196)    108595.6  Rx         050F  3  01 00 2E 
  1197)    108695.6  Rx         050F  3  01 00 2E 
  1198)    108795.6  Rx         050F  3  01 00 2E 
  1199)    108895.5  Rx         050F  3  01 00 2E 
  1200)    108995.5  Rx         050F  3  01 00 2E 
  1201)    109095.5  Rx         050F  3  01 00 2E 
  1202)    109195.5  Rx         050F  3  01 00 2E 
  1203)    109195.7  Rx         050F  3  00 08 BB 
  1204)    109295.5  Rx         050F  3  01 00 2F 
  1205)    109395.4  Rx         050F  3  01 00 2F 
  1206)    109495.4  Rx         050F  3  01 00 2F 
  1207)    109595.4  Rx         050F  3  01 00 2F 
  1208)    109695.3  Rx         050F  3  01 00 2F 
  1209)    109795.3  Rx         050F  3  01 00 2F 
  1210)    109895.3  Rx         050F  3  01 00 2F 
  1211)    109995.3  Rx         050F  3  01 00 2F 
  1212)    110095.3  Rx         050F  3  01 00 2F 
  1213)    110195.3  Rx         050F  3  01 00 2F 
  1214)    110195.6  Rx         050F  3  00 08 B7 
  1215)    110295.3  Rx         050F  3  01 00 2F 
  1216)    110395.2  Rx         050F  3  01 00 30 
  1217)    110495.2  Rx         050F  3  01 00 30 
  1218)    110595.2  Rx         050F  3  01 00 30 
  1219)    110695.2  Rx         050F  3  01 00 30 
  1220)    110795.2  Rx         050F  3  01 00 30 
  1221)    110895.1  Rx         050F  3  01 00 30 
  1222)    110995.2  Rx         050F  3  01 00 30 
  1223)    111095.1  Rx         050F  3  01 00 30 
  1224)    111195.1  Rx         050F  3  01 00 30 
  1225)    111195.4  Rx         050F  3  00 08 BB 
  1226)    111295.1  Rx         050F  3  01 00 30 
  1227)    111395.0  Rx         050F  3  01 00 30 
  1228)    111495.0  Rx         050F  3  01 00 30 
  1229)    111595.0  Rx         050F  3  01 00 30 
  1230)    111695.0  Rx         050F  3  01 00 30 
  1231)    111795.0  Rx         050F  3  01 00 30 
  1232)    111895.0  Rx         050F  3  01 00 30 
  1233)    111994.9  Rx         050F  3  01 00 30 
  1234)    112094.9  Rx         050F  3  01 00 30 
  1235)    112194.9  Rx         050F  3  01 00 30 
  1236)    112195.2  Rx         050F  3  00 08 B6 
  1237)    112294.9  Rx         050F  3  01 00 30 
  1238)    112394.9  Rx         050F  3  01 00 30 
  1239)    112494.8  Rx         050F  3  01 00 31 
  1240)    112594.8  Rx         050F  3  01 00 31 
  1241)    112694.8  Rx         050F  3  01 00 31 
  1242)    112794.8  Rx         050F  3  01 00 31 
  1243)    112894.7  Rx         050F  3  01 00 30 
  1244)    112994.7  Rx         050F  3  01 00 30 
  1245)    113094.7  Rx         050F  3  01 00 30 
  1246)    113194.7  Rx         050F  3  01 00 30 
  1247)    113195.0  Rx         050F  3  00 08 B9 
  1248)    113294.7  Rx         050F  3  01 00 31 
  1249)    113394.6  Rx         050F  3  01 00 31 
  1250)    113494.6  Rx         050F  3  01 00 31 
  1251)    113594.6  Rx         050F  3  01 00 31 
  1252)    113694.6  Rx         050F  3  01 00 31 
  1253)    113794.6  Rx         050F  3  01 00 31 
  1254)    113894.5  Rx         050F  3  01 00 31 
  1255)    113994.5  Rx         050F  3  01 00 31 
  1256)    114094.5  Rx         050F  3  01 00 31 
  1257)    114194.5  Rx         050F  3  01 00 31 
  1258)    114194.8  Rx         050F  3  00 08 B5 
  1259)    114294.5  Rx         050F  3  01 00 31 
  1260)    114394.4  Rx         050F  3  01 00 31 
  1261)    114494.4  Rx         050F  3  01 00 31 
  1262)    114594.4  Rx         050F  3  01 00 31 
  1263)    114694.4  Rx         050F  3  01 00 31 
  1264)    114794.3  Rx         050F  3  01 00 31 
  1265)    114894.3  Rx         050F  3  01 00 31 
  1266)    114994.3  Rx         050F  3  01 00 31 
  1267)    115094.3  Rx         050F  3  01 00 31 
  1268)    115194.3  Rx         050F  3  01 00 31 
  1269)    115194.6  Rx         050F  3  00 08 B9 
  1270)    115294.3  Rx         050F  3  01 00 31 
  1271)    115394.3  Rx         050F  3  01 00 31 
  1272)    115494.2  Rx         050F  3  01 00 31 
  1273)    115594.2  Rx         050F  3  01 00 31 
  1274)    115694.2  Rx         050F  3  01 00 31 
  1275)    115794.2  Rx         050F  3  01 00 31 
  1276)    115894.2  Rx         050F  3  01 00 31 
  1277)    115994.2  Rx         050F  3  01 00 31 
  1278)    116094.2  Rx         050F  3  01 00 31 
  1279)    116194.1  Rx         050F  3  01 00 31 
  1280)    116194.4  Rx         050F  3  00 08 C1 
  1281)    116294.1  Rx         050F  3  01 00 31 
  1282)    116394.1  Rx         050F  3  01 00 31 
  1283)    116494.1  Rx         050F  3  01 00 31 
  1284)    116594.1  Rx         050F  3  01 00 31 
  1285)    116694.0  Rx         050F  3  01 00 31 
  1286)    116794.0  Rx         050F  3  01 00 31 
  1287)    116893.9  Rx         050F  3  01 00 31 
  1288)    116994.0  Rx         050F  3  01 00 31 
  1289)    117093.9  Rx         050F  3  01 00 31 
  1290)    117193.9  Rx         050F  3  01 00 31 
  1291)    117194.2  Rx         050F  3  00 08 C6 
  1292)    117293.9  Rx         050F  3  01 00 31 
  1293)    117393.9  Rx         050F  3  01 00 31 
  1294)    117493.8  Rx         050F  3  01 00 31 
  1295)    117593.8  Rx         050F  3  01 00 31 
  1296)    117693.8  Rx         050F  3  01 00 31 
  1297)    117793.8  Rx         050F  3  01 00 31 
  1298)    117893.8  Rx         050F  3  01 00 31 
  1299)    117993.8  Rx         050F  3  01 00 31 
  1300)    118093.8  Rx         050F  3  01 00 31 
  1301)    118193.8  Rx         050F  3  01 00 31 
  1302)    118194.1  Rx         050F  3  00 08 CB 
  1303)    118293.8  Rx         050F  3  01 00 31 
  1304)    118393.7  Rx         050F  3  01 00 31 
  1305)    118493.7  Rx         050F  3  01 00 31 
  1306)    118593.7  Rx         050F  3  01 00 31 
  1307)    118693.7  Rx         050F  3  01 00 31 
  1308)    118793.7  Rx         050F  3  01 00 31 
  1309)    118893.6  Rx         050F  3  01 00 31 
  1310)    118993.7  Rx         050F  3  01 00 31 
  1311)    119093.6  Rx         050F  3  01 00 31 
  1312)    119193.6  Rx         050F  3  01 00 31 
  1313)    119193.9  Rx         050F  3  00 08 C8 
  1314)    119293.6  Rx         050F  3  01 00 32 
  1315)    119393.6  Rx         050F  3  01 00 32 
  1316)    119493.6  Rx         050F  3  01 00 31 
  1317)    119593.5  Rx         050F  3  01 00 32 
  1318)    119693.5  Rx         050F  3  01 00 31 
  1319)    119793.5  Rx         050F  3  01 00 31 
  1320)    119893.5  Rx         050F  3  01 00 32 
  1321)    119993.5  Rx         050F  3  01 00 32 
  1322)    120093.5  Rx         050F  3  01 00 31 
  1323)    120193.5  Rx         050F  3  01 00 31 
  1324)    120193.8  Rx         050F  3  00 08 C0 
  1325)    120293.4  Rx         050F  3  01 00 31 
  1326)    120393.4  Rx         050F  3  01 00 32 
  1327)    120493.4  Rx         050F  3  01 00 31 
  1328)    120593.4  Rx         050F  3  01 00 32 
  1329)    120693.4  Rx         050F  3  01 00 32 
  1330)    120793.3  Rx         050F  3  01 00 32 
  1331)    120893.3  Rx         050F  3  01 00 32 
  1332)    120993.3  Rx         050F  3  01 00 32 
  1333)    121093.2  Rx         050F  3  01 00 32 
  1334)    121193.2  Rx         050F  3  01 00 32 
  1335)    121193.5  Rx         050F  3  00 08 BD 
  1336)    121293.2  Rx         050F  3  01 00 32 
  1337)    121393.2  Rx         050F  3  01 00 32 
  1338)    121493.2  Rx         050F  3  01 00 32 
  1339)    121593.2  Rx         050F  3  01 00 31 
  1340)    121693.1  Rx         050F  3  01 00 32 
  1341)    121793.1  Rx         050F  3  01 00 32 
  1342)    121893.1  Rx         050F  3  01 00 32 
  1343)    121993.1  Rx         050F  3  01 00 32 
  1344)    122093.1  Rx         050F  3  01 00 32 
  1345)    122193.1  Rx         050F  3  01 00 32 
  1346)    122193.4  Rx         050F  3  00 08 B9 
  1347)    122293.1  Rx         050F  3  01 00 32 
  1348)    122393.1  Rx         050F  3  01 00 32 
  1349)    122493.1  Rx         050F  3  01 00 32 
  1350)    122593.1  Rx         050F  3  01 00 32 
  1351)    122693.1  Rx         050F  3  01 00 32 
  1352)    122793.1  Rx         050F  3  01 00 32 
  1353)    122893.1  Rx         050F  3  01 00 32 
  1354)    122993.1  Rx         050F  3  01 00 32 
  1355)    123093.1  Rx         050F  3  01 00 32 
  1356)    123193.0  Rx         050F  3  01 00 32 
  1357)    123193.4  Rx         050F  3  00 08 B5 
  1358)    123293.0  Rx         050F  3  01 00 32 
  1359)    123393.0  Rx         050F  3  01 00 32 
  1360)    123493.0  Rx         050F  3  01 00 32 
  1361)    123593.0  Rx         050F  3  01 00 32 
  1362)    123693.0  Rx         050F  3  01 00 32 
  1363)    123793.0  Rx         050F  3  01 00 32 
  1364)    123893.0  Rx         050F  3  01 00 32 
  1365)    123993.0  Rx         050F  3  01 00 32 
  1366)    124093.0  Rx         050F  3  01 00 32 
  1367)    124192.9  Rx         050F  3  01 00 32 
  1368)    124193.2  Rx         050F  3  00 08 AF 
  1369)    124292.9  Rx         050F  3  01 00 32 
  1370)    124392.9  Rx         050F  3  01 00 32 
  1371)    124492.9  Rx         050F  3  01 00 32 
  1372)    124592.9  Rx         050F  3  01 00 32 
  1373)    124692.9  Rx         050F  3  01 00 32 
  1374)    124792.9  Rx         050F  3  01 00 32 
  1375)    124892.9  Rx         050F  3  01 00 32 
  1376)    124992.9  Rx         050F  3  01 00 32 
  1377)    125092.9  Rx         050F  3  01 00 32 
  1378)    125192.9  Rx         050F  3  01 00 32 
  1379)    125193.2  Rx         050F  3  00 08 B4 
  1380)    125292.9  Rx         050F  3  01 00 32 
  1381)    125392.9  Rx         050F  3  01 00 32 
  1382)    125492.9  Rx         050F  3  01 00 32 
  1383)    125592.8  Rx         050F  3  01 00 32 
  1384)    125692.8  Rx         050F  3  01 00 32 
  1385)    125792.8  Rx         050F  3  01 00 32 
  1386)    125892.8  Rx         050F  3  01 00 32 
  1387)    125992.9  Rx         050F  3  01 00 32 
  1388)    126092.8  Rx         050F  3  01 00 32 
  1389)    126192.9  Rx         050F  3  01 00 32 
  1390)    126193.2  Rx         050F  3  00 08 B4 
  1391)    126292.8  Rx         050F  3  01 00 32 
  1392)    126392.8  Rx         050F  3  01 00 32 
  1393)    126492.8  Rx         050F  3  01 00 32 
  1394)    126592.8  Rx         050F  3  01 00 32 
  1395)    126692.8  Rx         050F  3  01 00 32 
  1396)    126792.8  Rx         050F  3  01 00 32 
  1397)    126892.8  Rx         050F  3  01 00 32 
  1398)    126992.8  Rx         050F  3  01 00 32 
  1399)    127092.8  Rx         050F  3  01 00 32 
  1400)    127192.8  Rx         050F  3  01 00 32 
  1401)    127193.1  Rx         050F  3  00 08 B6 
  1402)    127292.8  Rx         050F  3  01 00 32 
  1403)    127392.8  Rx         050F  3  01 00 32 
  1404)    127492.8  Rx         050F  3  01 00 32 
  1405)    127592.8  Rx         050F  3  01 00 32 
  1406)    127692.8  Rx         050F  3  01 00 32 
  1407)    127792.8  Rx         050F  3  01 00 32 
  1408)    127892.8  Rx         050F  3  01 00 32 
  1409)    127992.8  Rx         050F  3  01 00 32 
  1410)    128092.8  Rx         050F  3  01 00 32 
  1411)    128192.8  Rx         050F  3  01 00 32 
  1412)    128193.1  Rx         050F  3  00 08 B5 
  1413)    128292.8  Rx         050F  3  01 00 33 
  1414)    128392.7  Rx         050F  3  01 00 33 
  1415)    128492.7  Rx         050F  3  01 00 33 
  1416)    128592.8  Rx         050F  3  01 00 32 
  1417)    128692.8  Rx         050F  3  01 00 32 
  1418)    128792.8  Rx         050F  3  01 00 33 
  1419)    128892.7  Rx         050F  3  01 00 33 
  1420)    128992.8  Rx         050F  3  01 00 33 
  1421)    129092.8  Rx         050F  3  01 00 33 
  1422)    129192.7  Rx         050F  3  01 00 33 
  1423)    129193.0  Rx         050F  3  00 08 BA 
  1424)    129292.7  Rx         050F  3  01 00 33 
  1425)    129392.7  Rx         050F  3  01 00 33 
  1426)    129492.7  Rx         050F  3  01 00 33 
  1427)    129592.7  Rx         050F  3  01 00 33 
  1428)    129692.7  Rx         050F  3  01 00 33 
  1429)    129792.7  Rx         050F  3  01 00 33 
  1430)    129892.7  Rx         050F  3  01 00 33 
  1431)    129992.7  Rx         050F  3  01 00 33 
  1432)    130092.7  Rx         050F  3  01 00 33 
  1433)    130192.7  Rx         050F  3  01 00 33 
  1434)    130193.0  Rx         050F  3  00 08 BD 
  1435)    130292.7  Rx         050F  3  01 00 33 
  1436)    130392.7  Rx         050F  3  01 00 33 
  1437)    130492.7  Rx         050F  3  01 00 33 
  1438)    130592.7  Rx         050F  3  01 00 33 
  1439)    130692.7  Rx         050F  3  01 00 33 
  1440)    130792.7  Rx         050F  3  01 00 33 
  1441)    130892.7  Rx         050F  3  01 00 33 
  1442)    130992.7  Rx         050F  3  01 00 33 
  1443)    131092.7  Rx         050F  3  01 00 33 
  1444)    131192.7  Rx         050F  3  01 00 33 
  1445)    131193.0  Rx         050F  3  00 08 BB 
  1446)    131292.6  Rx         050F  3  01 00 33 
  1447)    131392.7  Rx         050F  3  01 00 33 
  1448)    131492.7  Rx         050F  3  01 00 33 
  1449)    131592.7  Rx         050F  3  01 00 33 
  1450)    131692.6  Rx         050F  3  01 00 33 
  1451)    131792.6  Rx         050F  3  01 00 33 
  1452)    131892.6  Rx         050F  3  01 00 33 
  1453)    131992.6  Rx         050F  3  01 00 33 
  1454)    132092.7  Rx         050F  3  01 00 33 
  1455)    132192.7  Rx         050F  3  01 00 33 
  1456)    132193.0  Rx         050F  3  00 08 B8 
  1457)    132292.6  Rx         050F  3  01 00 33 
  1458)    132392.6  Rx         050F  3  01 00 34 
  1459)    132492.6  Rx         050F  3  01 00 34 
  1460)    132592.6  Rx         050F  3  01 00 34 
  1461)    132692.6  Rx         050F  3  01 00 34 
  1462)    132792.6  Rx         050F  3  01 00 34 
  1463)    132892.6  Rx         050F  3  01 00 34 
  1464)    132992.6  Rx         050F  3  01 00 34 
  1465)    133092.6  Rx         050F  3  01 00 34 
  1466)    133192.6  Rx         050F  3  01 00 34 
  1467)    133192.9  Rx         050F  3  00 08 C0 
  1468)    133292.6  Rx         050F  3  01 00 34 
  1469)    133392.6  Rx         050F  3  01 00 34 
  1470)    133492.6  Rx         050F  3  01 00 34 
  1471)    133592.6  Rx         050F  3  01 00 34 
  1472)    133692.6  Rx         050F  3  01 00 34 
  1473)    133792.6  Rx         050F  3  01 00 34 
  1474)    133892.6  Rx         050F  3  01 00 34 
  1475)    133992.6  Rx         050F  3  01 00 34 
  1476)    134092.6  Rx         050F  3  01 00 34 
  1477)    134192.6  Rx         050F  3  01 00 34 
  1478)    134192.9  Rx         050F  3  00 08 BE 
  1479)    134292.7  Rx         050F  3  01 00 34 
  1480)    134392.6  Rx         050F  3  01 00 34 
  1481)    134492.6  Rx         050F  3  01 00 34 
  1482)    134592.6  Rx         050F  3  01 00 34 
  1483)    134692.7  Rx         050F  3  01 00 34 
  1484)    134792.7  Rx         050F  3  01 00 34 
  1485)    134892.7  Rx         050F  3  01 00 34 
  1486)    134992.7  Rx         050F  3  01 00 34 
  1487)    135092.7  Rx         050F  3  01 00 34 
  1488)    135192.7  Rx         050F  3  01 00 34 
  1489)    135193.0  Rx         050F  3  00 08 C3 
  1490)    135292.7  Rx         050F  3  01 00 34 
  1491)    135392.7  Rx         050F  3  01 00 34 
  1492)    135492.7  Rx         050F  3  01 00 34 
  1493)    135592.7  Rx         050F  3  01 00 34 
  1494)    135692.8  Rx         050F  3  01 00 34 
  1495)    135792.8  Rx         050F  3  01 00 34 
  1496)    135892.7  Rx         050F  3  01 00 34 
  1497)    135992.8  Rx         050F  3  01 00 34 
  1498)    136092.8  Rx         050F  3  01 00 34 
  1499)    136192.8  Rx         050F  3  01 00 34 
  1500)    136193.1  Rx         050F  3  00 08 BC 
  1501)    136292.8  Rx         050F  3  01 00 34 
  1502)    136392.8  Rx         050F  3  01 00 34 
  1503)    136492.8  Rx         050F  3  01 00 34 
  1504)    136592.8  Rx         050F  3  01 00 34 
  1505)    136692.8  Rx         050F  3  01 00 34 
  1506)    136792.9  Rx         050F  3  01 00 34 
  1507)    136892.9  Rx         050F  3  01 00 34 
  1508)    136992.9  Rx         050F  3  01 00 35 
  1509)    137092.9  Rx         050F  3  01 00 35 
  1510)    137192.9  Rx         050F  3  01 00 35 
  1511)    137193.2  Rx         050F  3  00 08 B9 
  1512)    137292.9  Rx         050F  3  01 00 35 
  1513)    137392.9  Rx         050F  3  01 00 35 
  1514)    137492.9  Rx         050F  3  01 00 35 
  1515)    137592.9  Rx         050F  3  01 00 35 
  1516)    137692.9  Rx         050F  3  01 00 35 
  1517)    137792.9  Rx         050F  3  01 00 35 
  1518)    137892.9  Rx         050F  3  01 00 35 
  1519)    137992.8  Rx         050F  3  01 00 35 
  1520)    138092.8  Rx         050F  3  01 00 35 
  1521)    138192.8  Rx         050F  3  01 00 35 
  1522)    138193.1  Rx         050F  3  00 08 BB 
  1523)    138292.8  Rx         050F  3  01 00 35 
  1524)    138392.8  Rx         050F  3  01 00 35 
  1525)    138492.8  Rx         050F  3  01 00 35 
  1526)    138592.7  Rx         050F  3  01 00 35 
  1527)    138692.7  Rx         050F  3  01 00 35 
  1528)    138792.7  Rx         050F  3  01 00 35 
  1529)    138892.7  Rx         050F  3  01 00 35 
  1530)    138992.7  Rx         050F  3  01 00 35 
  1531)    139092.7  Rx         050F  3  01 00 35 
  1532)    139192.7  Rx         050F  3  01 00 35 
  1533)    139193.0  Rx         050F  3  00 08 BB 
  1534)    139292.7  Rx         050F  3  01 00 35 
  1535)    139392.7  Rx         050F  3  01 00 35 
  1536)    139492.7  Rx         050F  3  01 00 35 
  1537)    139592.7  Rx         050F  3  01 00 35 
  1538)    139692.7  Rx         050F  3  01 00 35 
  1539)    139792.7  Rx         050F  3  01 00 35 
  1540)    139892.7  Rx         050F  3  01 00 36 
  1541)    139992.7  Rx         050F  3  01 00 36 
  1542)    140092.7  Rx         050F  3  01 00 36 
  1543)    140192.6  Rx         050F  3  01 00 36 
  1544)    140192.9  Rx         050F  3  00 08 BA 
  1545)    140292.6  Rx         050F  3  01 00 36 
  1546)    140392.6  Rx         050F  3  01 00 36 
  1547)    140492.6  Rx         050F  3  01 00 36 
  1548)    140592.5  Rx         050F  3  01 00 36 
  1549)    140692.5  Rx         050F  3  01 00 36 
  1550)    140792.5  Rx         050F  3  01 00 36 
  1551)    140892.5  Rx         050F  3  01 00 36 
  1552)    140992.5  Rx         050F  3  01 00 36 
  1553)    141092.5  Rx         050F  3  01 00 36 
  1554)    141192.5  Rx         050F  3  01 00 36 
  1555)    141192.8  Rx         050F  3  00 08 B0 
  1556)    141292.4  Rx         050F  3  01 00 36 
  1557)    141392.4  Rx         050F  3  01 00 36 
  1558)    141492.4  Rx         050F  3  01 00 36 
  1559)    141592.4  Rx         050F  3  01 00 36 
  1560)    141692.4  Rx         050F  3  01 00 36 
  1561)    141792.4  Rx         050F  3  01 00 36 
  1562)    141892.4  Rx         050F  3  01 00 36 
  1563)    141992.5  Rx         050F  3  01 00 36 
  1564)    142092.4  Rx         050F  3  01 00 37 
  1565)    142192.4  Rx         050F  3  01 00 36 
  1566)    142192.7  Rx         050F  3  00 08 A8 
  1567)    142292.4  Rx         050F  3  01 00 37 
  1568)    142392.4  Rx         050F  3  01 00 37 
  1569)    142492.4  Rx         050F  3  01 00 37 
  1570)    142592.4  Rx         050F  3  01 00 37 
  1571)    142692.3  Rx         050F  3  01 00 37 
  1572)    142792.3  Rx         050F  3  01 00 37 
  1573)    142892.3  Rx         050F  3  01 00 37 
  1574)    142992.3  Rx         050F  3  01 00 37 
  1575)    143092.3  Rx         050F  3  01 00 37 
  1576)    143192.3  Rx         050F  3  01 00 37 
  1577)    143192.6  Rx         050F  3  00 08 A7 
  1578)    143292.3  Rx         050F  3  01 00 37 
  1579)    143392.3  Rx         050F  3  01 00 37 
  1580)    143492.3  Rx         050F  3  01 00 37 
  1581)    143592.2  Rx         050F  3  01 00 38 
  1582)    143692.2  Rx         050F  3  01 00 37 
  1583)    143792.2  Rx         050F  3  01 00 37 
  1584)    143892.2  Rx         050F  3  01 00 37 
  1585)    143992.2  Rx         050F  3  01 00 37 
  1586)    144092.2  Rx         050F  3  01 00 37 
  1587)    144192.3  Rx         050F  3  01 00 37 
  1588)    144192.6  Rx         050F  3  00 08 A5 
  1589)    144292.2  Rx         050F  3  01 00 37 
  1590)    144392.2  Rx         050F  3  01 00 37 
  1591)    144492.2  Rx         050F  3  01 00 38 
  1592)    144592.2  Rx         050F  3  01 00 37 
  1593)    144692.2  Rx         050F  3  01 00 37 
  1594)    144792.2  Rx         050F  3  01 00 37 
  1595)    144892.1  Rx         050F  3  01 00 38 
  1596)    144992.2  Rx         050F  3  01 00 37 
  1597)    145092.2  Rx         050F  3  01 00 38 
  1598)    145192.2  Rx         050F  3  01 00 38 
  1599)    145192.4  Rx         050F  3  00 08 A7 
  1600)    145292.1  Rx         050F  3  01 00 38 
  1601)    145392.1  Rx         050F  3  01 00 38 
  1602)    145492.1  Rx         050F  3  01 00 38 
  1603)    145592.1  Rx         050F  3  01 00 38 
  1604)    145692.1  Rx         050F  3  01 00 38 
  1605)    145792.1  Rx         050F  3  01 00 38 
  1606)    145892.1  Rx         050F  3  01 00 38 
  1607)    145992.1  Rx         050F  3  01 00 38 
  1608)    146092.1  Rx         050F  3  01 00 38 
  1609)    146192.0  Rx         050F  3  01 00 38 
  1610)    146192.3  Rx         050F  3  00 08 A0 
  1611)    146292.0  Rx         050F  3  01 00 38 
  1612)    146392.0  Rx         050F  3  01 00 38 
  1613)    146492.0  Rx         050F  3  01 00 38 
  1614)    146592.0  Rx         050F  3  01 00 38 
  1615)    146692.0  Rx         050F  3  01 00 38 
  1616)    146792.0  Rx         050F  3  01 00 38 
  1617)    146892.0  Rx         050F  3  01 00 38 
  1618)    146992.0  Rx         050F  3  01 00 38 
  1619)    147092.0  Rx         050F  3  01 00 38 
  1620)    147192.0  Rx         050F  3  01 00 38 
  1621)    147192.3  Rx         050F  3  00 08 A6 
  1622)    147292.0  Rx         050F  3  01 00 38 
  1623)    147392.0  Rx         050F  3  01 00 38 
  1624)    147491.9  Rx         050F  3  01 00 38 
  1625)    147591.9  Rx         050F  3  01 00 38 
  1626)    147691.9  Rx         050F  3  01 00 38 
  1627)    147791.9  Rx         050F  3  01 00 38 
  1628)    147891.9  Rx         050F  3  01 00 38 
  1629)    147991.9  Rx         050F  3  01 00 38 
  1630)    148091.9  Rx         050F  3  01 00 38 
  1631)    148191.9  Rx         050F  3  01 00 38 
  1632)    148192.2  Rx         050F  3  00 08 A9 
  1633)    148291.9  Rx         050F  3  01 00 38 
  1634)    148391.9  Rx         050F  3  01 00 39 
  1635)    148491.9  Rx         050F  3  01 00 38 
  1636)    148591.9  Rx         050F  3  01 00 39 
  1637)    148691.9  Rx         050F  3  01 00 39 
  1638)    148791.9  Rx         050F  3  01 00 39 
  1639)    148891.8  Rx         050F  3  01 00 39 
  1640)    148991.9  Rx         050F  3  01 00 39 
  1641)    149091.9  Rx         050F  3  01 00 39 
  1642)    149191.8  Rx         050F  3  01 00 39 
  1643)    149192.1  Rx         050F  3  00 08 A8 
  1644)    149291.8  Rx         050F  3  01 00 39 
  1645)    149391.8  Rx         050F  3  01 00 39 
  1646)    149491.8  Rx         050F  3  01 00 39 
  1647)    149591.8  Rx         050F  3  01 00 39 
  1648)    149691.8  Rx         050F  3  01 00 39 
  1649)    149791.8  Rx         050F  3  01 00 39 
  1650)    149891.8  Rx         050F  3  01 00 39 
  1651)    149991.8  Rx         050F  3  01 00 39 
  1652)    150091.8  Rx         050F  3  01 00 39 
  1653)    150191.8  Rx         050F  3  01 00 39 
  1654)    150192.1  Rx         050F  3  00 08 AF 
  1655)    150291.8  Rx         050F  3  01 00 39 
  1656)    150391.8  Rx         050F  3  01 00 39 
  1657)    150491.7  Rx         050F  3  01 00 39 
  1658)    150591.7  Rx         050F  3  01 00 39 
  1659)    150691.8  Rx         050F  3  01 00 39 
  1660)    150791.8  Rx         050F  3  01 00 3A 
  1661)    150891.8  Rx         050F  3  01 00 3A 
  1662)    150991.8  Rx         050F  3  01 00 3A 
  1663)    151091.8  Rx         050F  3  01 00 39 
  1664)    151191.8  Rx         050F  3  01 00 39 
  1665)    151192.1  Rx         050F  3  00 08 A7 
  1666)    151291.8  Rx         050F  3  01 00 39 
  1667)    151391.8  Rx         050F  3  01 00 3A 
  1668)    151491.8  Rx         050F  3  01 00 3A 
  1669)    151591.8  Rx         050F  3  01 00 3A 
  1670)    151691.7  Rx         050F  3  01 00 3A 
  1671)    151791.7  Rx         050F  3  01 00 39 
  1672)    151891.7  Rx         050F  3  01 00 3A 
  1673)    151991.7  Rx         050F  3  01 00 3A 
  1674)    152091.7  Rx         050F  3  01 00 3A 
  1675)    152191.7  Rx         050F  3  01 00 3A 
  1676)    152192.0  Rx         050F  3  00 08 A1 
  1677)    152291.7  Rx         050F  3  01 00 3A 
  1678)    152391.7  Rx         050F  3  01 00 3A 
  1679)    152491.7  Rx         050F  3  01 00 3A 
  1680)    152591.7  Rx         050F  3  01 00 3A 
  1681)    152691.7  Rx         050F  3  01 00 3A 
  1682)    152791.7  Rx         050F  3  01 00 3A 
  1683)    152891.7  Rx         050F  3  01 00 3A 
  1684)    152991.7  Rx         050F  3  01 00 3A 
  1685)    153091.7  Rx         050F  3  01 00 3A 
  1686)    153191.7  Rx         050F  3  01 00 3A 
  1687)    153192.0  Rx         050F  3  00 08 A5 
  1688)    153291.7  Rx         050F  3  01 00 3A 
  1689)    153391.7  Rx         050F  3  01 00 3A 
  1690)    153491.7  Rx         050F  3  01 00 3A 
  1691)    153591.7  Rx         050F  3  01 00 3A 
  1692)    153691.7  Rx         050F  3  01 00 3A 
  1693)    153791.6  Rx         050F  3  01 00 3A 
  1694)    153891.6  Rx         050F  3  01 00 3A 
  1695)    153991.7  Rx         050F  3  01 00 3A 
  1696)    154091.6  Rx         050F  3  01 00 3A 
  1697)    154191.6  Rx         050F  3  01 00 3B 
  1698)    154191.9  Rx         050F  3  00 08 9F 
  1699)    154291.6  Rx         050F  3  01 00 3A 
  1700)    154391.6  Rx         050F  3  01 00 3B 
  1701)    154491.6  Rx         050F  3  01 00 3B 
  1702)    154591.6  Rx         050F  3  01 00 3B 
  1703)    154691.5  Rx         050F  3  01 00 3B 
  1704)    154791.6  Rx         050F  3  01 00 3B 
  1705)    154891.6  Rx         050F  3  01 00 3B 
  1706)    154991.6  Rx         050F  3  01 00 3B 
  1707)    155091.6  Rx         050F  3  01 00 3B 
  1708)    155191.6  Rx         050F  3  01 00 3B 
  1709)    155191.9  Rx         050F  3  00 08 A7 
  1710)    155291.6  Rx         050F  3  01 00 3B 
  1711)    155391.6  Rx         050F  3  01 00 3B 
  1712)    155491.5  Rx         050F  3  01 00 3B 
  1713)    155591.5  Rx         050F  3  01 00 3B 
  1714)    155691.5  Rx         050F  3  01 00 3B 
  1715)    155791.5  Rx         050F  3  01 00 3B 
  1716)    155891.5  Rx         050F  3  01 00 3B 
  1717)    155991.5  Rx         050F  3  01 00 3B 
  1718)    156091.5  Rx         050F  3  01 00 3B 
  1719)    156191.5  Rx         050F  3  01 00 3B 
  1720)    156191.8  Rx         050F  3  00 08 A1 
  1721)    156291.5  Rx         050F  3  01 00 3B 
  1722)    156391.5  Rx         050F  3  01 00 3B 
  1723)    156491.5  Rx         050F  3  01 00 3B 
  1724)    156591.5  Rx         050F  3  01 00 3B 
  1725)    156691.5  Rx         050F  3  01 00 3B 
  1726)    156791.5  Rx         050F  3  01 00 3B 
  1727)    156891.5  Rx         050F  3  01 00 3B 
  1728)    156991.5  Rx         050F  3  01 00 3C 
  1729)    157091.6  Rx         050F  3  01 00 3C 
  1730)    157191.6  Rx         050F  3  01 00 3B 
  1731)    157191.9  Rx         050F  3  00 08 A6 
  1732)    157291.6  Rx         050F  3  01 00 3C 
  1733)    157391.5  Rx         050F  3  01 00 3C 
  1734)    157491.5  Rx         050F  3  01 00 3C 
  1735)    157591.5  Rx         050F  3  01 00 3C 
  1736)    157691.5  Rx         050F  3  01 00 3C 
  1737)    157791.5  Rx         050F  3  01 00 3C 
  1738)    157891.5  Rx         050F  3  01 00 3C 
  1739)    157991.5  Rx         050F  3  01 00 3C 
  1740)    158091.5  Rx         050F  3  01 00 3C 
  1741)    158191.5  Rx         050F  3  01 00 3C 
  1742)    158191.8  Rx         050F  3  00 08 A6 
  1743)    158291.5  Rx         050F  3  01 00 3C 
  1744)    158391.5  Rx         050F  3  01 00 3C 
  1745)    158491.5  Rx         050F  3  01 00 3C 
  1746)    158591.5  Rx         050F  3  01 00 3C 
  1747)    158691.5  Rx         050F  3  01 00 3C 
  1748)    158791.5  Rx         050F  3  01 00 3C 
  1749)    158891.5  Rx         050F  3  01 00 3C 
  1750)    158991.5  Rx         050F  3  01 00 3C 
  1751)    159091.5  Rx         050F  3  01 00 3C 
  1752)    159191.5  Rx         050F  3  01 00 3C 
  1753)    159191.8  Rx         050F  3  00 08 A3 
  1754)    159291.5  Rx         050F  3  01 00 3C 
  1755)    159391.5  Rx         050F  3  01 00 3C 
  1756)    159491.5  Rx         050F  3  01 00 3C 
  1757)    159591.5  Rx         050F  3  01 00 3D 
  1758)    159691.5  Rx         050F  3  01 00 3D 
  1759)    159791.5  Rx         050F  3  01 00 3D 
  1760)    159891.5  Rx         050F  3  01 00 3D 
  1761)    159991.5  Rx         050F  3  01 00 3D 
  1762)    160091.5  Rx         050F  3  01 00 3D 
  1763)    160191.5  Rx         050F  3  01 00 3D 
  1764)    160191.8  Rx         050F  3  00 08 A3 
  1765)    160291.4  Rx         050F  3  01 00 3D 
  1766)    160391.4  Rx         050F  3  01 00 3D 
  1767)    160491.4  Rx         050F  3  01 00 3D 
  1768)    160591.4  Rx         050F  3  01 00 3D 
  1769)    160691.4  Rx         050F  3  01 00 3D 
  1770)    160791.4  Rx         050F  3  01 00 3D 
  1771)    160891.3  Rx         050F  3  01 00 3D 
  1772)    160991.4  Rx         050F  3  01 00 3D 
  1773)    161091.3  Rx         050F  3  01 00 3D 
  1774)    161191.3  Rx         050F  3  01 00 3D 
  1775)    161191.6  Rx         050F  3  00 08 99 
  1776)    161291.3  Rx         050F  3  01 00 3D 
  1777)    161391.3  Rx         050F  3  01 00 3D 
  1778)    161491.3  Rx         050F  3  01 00 3D 
  1779)    161591.2  Rx         050F  3  01 00 3D 
  1780)    161691.2  Rx         050F  3  01 00 3D 
  1781)    161791.2  Rx         050F  3  01 00 3D 
  1782)    161891.2  Rx         050F  3  01 00 3D 
  1783)    161991.3  Rx         050F  3  01 00 3D 
  1784)    162091.2  Rx         050F  3  01 00 3D 
  1785)    162191.2  Rx         050F  3  01 00 3D 
  1786)    162191.5  Rx         050F  3  00 08 94 
  1787)    162291.2  Rx         050F  3  01 00 3D 
  1788)    162391.2  Rx         050F  3  01 00 3D 
  1789)    162491.2  Rx         050F  3  01 00 3D 
  1790)    162591.2  Rx         050F  3  01 00 3D 
  1791)    162691.1  Rx         050F  3  01 00 3D 
  1792)    162791.1  Rx         050F  3  01 00 3E 
  1793)    162891.1  Rx         050F  3  01 00 3E 
  1794)    162991.1  Rx         050F  3  01 00 3E 
  1795)    163091.1  Rx         050F  3  01 00 3E 
  1796)    163191.0  Rx         050F  3  01 00 3E 
  1797)    163191.3  Rx         050F  3  00 08 92 
  1798)    163291.0  Rx         050F  3  01 00 3E 
  1799)    163391.1  Rx         050F  3  01 00 3E 
  1800)    163491.0  Rx         050F  3  01 00 3E 
  1801)    163591.0  Rx         050F  3  01 00 3E 
  1802)    163691.0  Rx         050F  3  01 00 3E 
  1803)    163791.0  Rx         050F  3  01 00 3E 
  1804)    163891.0  Rx         050F  3  01 00 3E 
  1805)    163991.0  Rx         050F  3  01 00 3E 
  1806)    164091.0  Rx         050F  3  01 00 3E 
  1807)    164191.0  Rx         050F  3  01 00 3E 
  1808)    164191.3  Rx         050F  3  00 08 91 
  1809)    164291.0  Rx         050F  3  01 00 3E 
  1810)    164391.0  Rx         050F  3  01 00 3E 
  1811)    164490.9  Rx         050F  3  01 00 3E 
  1812)    164590.9  Rx         050F  3  01 00 3E 
  1813)    164690.9  Rx         050F  3  01 00 3E 
  1814)    164790.9  Rx         050F  3  01 00 3E 
  1815)    164890.9  Rx         050F  3  01 00 3E 
  1816)    164990.9  Rx         050F  3  01 00 3E 
  1817)    165090.9  Rx         050F  3  01 00 3E 
  1818)    165190.9  Rx         050F  3  01 00 3E 
  1819)    165191.2  Rx         050F  3  00 08 92 
  1820)    165290.9  Rx         050F  3  01 00 3E 
  1821)    165390.8  Rx         050F  3  01 00 3E 
  1822)    165490.8  Rx         050F  3  01 00 3E 
  1823)    165590.8  Rx         050F  3  01 00 3E 
  1824)    165690.8  Rx         050F  3  01 00 3E 
  1825)    165790.8  Rx         050F  3  01 00 3E 
  1826)    165890.8  Rx         050F  3  01 00 3E 
  1827)    165990.8  Rx         050F  3  01 00 3E 
  1828)    166090.8  Rx         050F  3  01 00 3E 
  1829)    166190.8  Rx         050F  3  01 00 3E 
  1830)    166191.1  Rx         050F  3  00 08 93 
  1831)    166290.8  Rx         050F  3  01 00 3E 
  1832)    166390.8  Rx         050F  3  01 00 3E 
  1833)    166490.8  Rx         050F  3  01 00 3E 
  1834)    166590.8  Rx         050F  3  01 00 3E 
  1835)    166690.8  Rx         050F  3  01 00 3E 
  1836)    166790.8  Rx         050F  3  01 00 3E 
  1837)    166890.8  Rx         050F  3  01 00 3E 
  1838)    166990.8  Rx         050F  3  01 00 3E 
  1839)    167090.8  Rx         050F  3  01 00 3E 
  1840)    167190.8  Rx         050F  3  01 00 3F 
  1841)    167191.1  Rx         050F  3  00 08 9B 
  1842)    167290.8  Rx         050F  3  01 00 3F 
  1843)    167390.8  Rx         050F  3  01 00 3F 
  1844)    167490.7  Rx         050F  3  01 00 3E 
  1845)    167590.7  Rx         050F  3  01 00 3F 
  1846)    167690.7  Rx         050F  3  01 00 3F 
  1847)    167790.7  Rx         050F  3  01 00 3F 
  1848)    167890.7  Rx         050F  3  01 00 3F 
  1849)    167990.7  Rx         050F  3  01 00 3F 
  1850)    168090.8  Rx         050F  3  01 00 3F 
  1851)    168190.7  Rx         050F  3  01 00 3F 
  1852)    168191.0  Rx         050F  3  00 08 97 
  1853)    168290.7  Rx         050F  3  01 00 3F 
  1854)    168390.7  Rx         050F  3  01 00 3F 
  1855)    168490.7  Rx         050F  3  01 00 3F 
  1856)    168590.7  Rx         050F  3  01 00 3F 
  1857)    168690.7  Rx         050F  3  01 00 3F 
  1858)    168790.7  Rx         050F  3  01 00 3F 
  1859)    168890.7  Rx         050F  3  01 00 3F 
  1860)    168990.7  Rx         050F  3  01 00 3F 
  1861)    169090.7  Rx         050F  3  01 00 3F 
  1862)    169190.7  Rx         050F  3  01 00 3F 
  1863)    169191.0  Rx         050F  3  00 08 96 
  1864)    169290.7  Rx         050F  3  01 00 3F 
  1865)    169390.7  Rx         050F  3  01 00 3F 
  1866)    169490.7  Rx         050F  3  01 00 3F 
  1867)    169590.6  Rx         050F  3  01 00 40 
  1868)    169690.6  Rx         050F  3  01 00 40 
  1869)    169790.6  Rx         050F  3  01 00 40 
  1870)    169890.6  Rx         050F  3  01 00 40 
  1871)    169990.7  Rx         050F  3  01 00 40 
  1872)    170090.7  Rx         050F  3  01 00 40 
  1873)    170190.7  Rx         050F  3  01 00 40 
  1874)    170191.0  Rx         050F  3  00 08 9F 
  1875)    170290.7  Rx         050F  3  01 00 40 
  1876)    170390.8  Rx         050F  3  01 00 40 
  1877)    170490.8  Rx         050F  3  01 00 40 
  1878)    170590.8  Rx         050F  3  01 00 3F 
  1879)    170690.8  Rx         050F  3  01 00 40 
  1880)    170790.8  Rx         050F  3  01 00 40 
  1881)    170890.8  Rx         050F  3  01 00 40 
  1882)    170990.9  Rx         050F  3  01 00 40 
  1883)    171090.9  Rx         050F  3  01 00 40 
  1884)    171190.9  Rx         050F  3  01 00 40 
  1885)    171191.2  Rx         050F  3  00 08 9E 
  1886)    171290.9  Rx         050F  3  01 00 40 
  1887)    171390.9  Rx         050F  3  01 00 40 
  1888)    171490.9  Rx         050F  3  01 00 40 
  1889)    171591.0  Rx         050F  3  01 00 40 
  1890)    171691.0  Rx         050F  3  01 00 40 
  1891)    171791.0  Rx         050F  3  01 00 40 
  1892)    171891.0  Rx         050F  3  01 00 40 
  1893)    171991.1  Rx         050F  3  01 00 40 
  1894)    172091.0  Rx         050F  3  01 00 40 
  1895)    172191.0  Rx         050F  3  01 00 40 
  1896)    172191.3  Rx         050F  3  00 08 98 
  1897)    172291.1  Rx         050F  3  01 00 40 
  1898)    172391.1  Rx         050F  3  01 00 40 
  1899)    172491.1  Rx         050F  3  01 00 40 
  1900)    172591.1  Rx         050F  3  01 00 40 
  1901)    172691.1  Rx         050F  3  01 00 40 
  1902)    172791.1  Rx         050F  3  01 00 40 
  1903)    172891.1  Rx         050F  3  01 00 40 
  1904)    172991.2  Rx         050F  3  01 00 40 
  1905)    173091.2  Rx         050F  3  01 00 40 
  1906)    173191.2  Rx         050F  3  01 00 40 
  1907)    173191.5  Rx         050F  3  00 08 9B 
  1908)    173291.2  Rx         050F  3  01 00 41 
  1909)    173391.2  Rx         050F  3  01 00 40 
  1910)    173491.2  Rx         050F  3  01 00 40 
  1911)    173591.2  Rx         050F  3  01 00 41 
  1912)    173691.2  Rx         050F  3  01 00 41 
  1913)    173791.2  Rx         050F  3  01 00 41 
  1914)    173891.2  Rx         050F  3  01 00 41 
  1915)    173991.3  Rx         050F  3  01 00 41 
  1916)    174091.3  Rx         050F  3  01 00 41 
  1917)    174191.3  Rx         050F  3  01 00 41 
  1918)    174191.6  Rx         050F  3  00 08 93 
  1919)    174291.3  Rx         050F  3  01 00 41 
  1920)    174391.3  Rx         050F  3  01 00 41 
  1921)    174491.3  Rx         050F  3  01 00 41 
  1922)    174591.3  Rx         050F  3  01 00 41 
  1923)    174691.3  Rx         050F  3  01 00 41 
  1924)    174791.3  Rx         050F  3  01 00 41 
  1925)    174891.3  Rx         050F  3  01 00 41 
  1926)    174991.4  Rx         050F  3  01 00 41 
  1927)    175091.4  Rx         050F  3  01 00 41 
  1928)    175191.4  Rx         050F  3  01 00 41 
  1929)    175191.6  Rx         050F  3  00 08 93 
  1930)    175291.3  Rx         050F  3  01 00 41 
  1931)    175391.4  Rx         050F  3  01 00 41 
  1932)    175491.4  Rx         050F  3  01 00 41 
  1933)    175591.4  Rx         050F  3  01 00 41 
  1934)    175691.4  Rx         050F  3  01 00 41 
  1935)    175791.4  Rx         050F  3  01 00 41 
  1936)    175891.4  Rx         050F  3  01 00 41 
  1937)    175991.4  Rx         050F  3  01 00 41 
  1938)    176091.5  Rx         050F  3  01 00 41 
  1939)    176191.5  Rx         050F  3  01 00 41 
  1940)    176191.8  Rx         050F  3  00 08 91 
  1941)    176291.4  Rx         050F  3  01 00 41 
  1942)    176391.5  Rx         050F  3  01 00 41 
  1943)    176491.5  Rx         050F  3  01 00 41 
  1944)    176591.5  Rx         050F  3  01 00 41 
  1945)    176691.5  Rx         050F  3  01 00 41 
  1946)    176791.5  Rx         050F  3  01 00 41 
  1947)    176891.5  Rx         050F  3  01 00 41 
  1948)    176991.5  Rx         050F  3  01 00 42 
  1949)    177091.5  Rx         050F  3  01 00 41 
  1950)    177191.5  Rx         050F  3  01 00 41 
  1951)    177191.9  Rx         050F  3  00 08 97 
