;$FILEVERSION=1.1
;$STARTTIME=46053.641488044
;
;   Start time: 1/31/2026 15:23:44.567.0
;   Generated by PCAN-View v5.3.3.958
;
;   Message Number
;   |         Time Offset (ms)
;   |         |        Type
;   |         |        |        ID (hex)
;   |         |        |        |     Data Length
;   |         |        |        |     |   Data Bytes (hex) ...
;   |         |        |        |     |   |
;---+--   ----+----  --+--  ----+---  +  -+ -- -- -- -- -- -- --
     1)         5.4  Rx         050F  3  01 FB EF 
     2)       105.4  Rx         050F  3  01 FB EF 
     3)       105.7  Rx         050F  3  00 07 51 
     4)       205.4  Rx         050F  3  01 FB EF 
     5)       305.4  Rx         050F  3  01 FB EF 
     6)       405.4  Rx         050F  3  01 FB EF 
     7)       505.4  Rx         050F  3  01 FB EF 
     8)       605.4  Rx         050F  3  01 FB F0 
     9)       705.5  Rx         050F  3  01 FB EF 
    10)       805.5  Rx         050F  3  01 FB EF 
    11)       905.5  Rx         050F  3  01 FB F0 
    12)      1005.5  Rx         050F  3  01 FB F0 
    13)      1105.5  Rx         050F  3  01 FB F0 
    14)      1105.8  Rx         050F  3  00 07 4A 
    15)      1205.5  Rx         050F  3  01 FB F0 
    16)      1305.5  Rx         050F  3  01 FB F0 
    17)      1405.5  Rx         050F  3  01 FB EF 
    18)      1505.5  Rx         050F  3  01 FB F0 
    19)      1605.5  Rx         050F  3  01 FB F0 
    20)      1705.5  Rx         050F  3  01 FB F0 
    21)      1805.5  Rx         050F  3  01 FB F0 
    22)      1905.5  Rx         050F  3  01 FB F0 
    23)      2005.5  Rx         050F  3  01 FB EF 
    24)      2105.5  Rx         050F  3  01 FB EF 
    25)      2105.8  Rx         050F  3  00 07 48 
    26)      2205.5  Rx         050F  3  01 FB F0 
    27)      2305.5  Rx         050F  3  01 FB F0 
    28)      2405.5  Rx         050F  3  01 FB F0 
    29)      2505.5  Rx         050F  3  01 FB F0 
    30)      2605.5  Rx         050F  3  01 FB F0 
    31)      2705.5  Rx         050F  3  01 FB F0 
    32)      2805.6  Rx         050F  3  01 FB F0 
    33)      2905.6  Rx         050F  3  01 FB F0 
    34)      3005.6  Rx         050F  3  01 FB F0 
    35)      3105.6  Rx         050F  3  01 FB F0 
    36)      3105.9  Rx         050F  3  00 07 42 
    37)      3205.6  Rx         050F  3  01 FB F0 
    38)      3305.5  Rx         050F  3  01 FB F0 
    39)      3405.5  Rx         050F  3  01 FB F0 
    40)      3505.5  Rx         050F  3  01 FB F0 
    41)      3605.5  Rx         050F  3  01 FB F0 
    42)      3705.5  Rx         050F  3  01 FB F2 
    43)      3805.5  Rx         050F  3  01 FB FD 
    44)      3905.5  Rx         050F  3  01 FC 0E 
    45)      4005.5  Rx         050F  3  01 FC 23 
    46)      4105.5  Rx         050F  3  01 FC 3C 
    47)      4105.8  Rx         050F  3  00 07 3D 
    48)      4205.5  Rx         050F  3  01 FC 56 
    49)      4305.4  Rx         050F  3  01 FC 6E 
    50)      4405.4  Rx         050F  3  01 FC 90 
    51)      4505.4  Rx         050F  3  01 FC B6 
    52)      4605.4  Rx         050F  3  01 FC D4 
    53)      4705.4  Rx         050F  3  01 FC ED 
    54)      4805.4  Rx         050F  3  01 FD 07 
    55)      4905.4  Rx         050F  3  01 FD 2A 
    56)      5005.4  Rx         050F  3  01 FD 4B 
    57)      5105.4  Rx         050F  3  01 FD 75 
    58)      5105.7  Rx         050F  3  00 07 45 
    59)      5205.4  Rx         050F  3  01 FD A3 
    60)      5305.4  Rx         050F  3  01 FD D6 
    61)      5405.4  Rx         050F  3  01 FE 05 
    62)      5505.4  Rx         050F  3  01 FE 39 
    63)      5605.4  Rx         050F  3  01 FE 7C 
    64)      5705.4  Rx         050F  3  01 FE C2 
    65)      5805.4  Rx         050F  3  01 FF 04 
    66)      5905.4  Rx         050F  3  01 FF 36 
    67)      6005.4  Rx         050F  3  01 FF 62 
    68)      6105.4  Rx         050F  3  01 FF 83 
    69)      6105.7  Rx         050F  3  00 07 50 
    70)      6205.4  Rx         050F  3  01 FF 95 
    71)      6305.3  Rx         050F  3  01 FF 9C 
    72)      6405.4  Rx         050F  3  01 FF 9F 
    73)      6505.3  Rx         050F  3  01 FF A1 
    74)      6605.3  Rx         050F  3  01 FF A1 
    75)      6705.4  Rx         050F  3  01 FF A1 
    76)      6805.4  Rx         050F  3  01 FF A1 
    77)      6905.4  Rx         050F  3  01 FF A1 
    78)      7005.4  Rx         050F  3  01 FF A1 
    79)      7105.4  Rx         050F  3  01 FF A1 
    80)      7105.7  Rx         050F  3  00 07 4A 
    81)      7205.4  Rx         050F  3  01 FF A1 
    82)      7305.4  Rx         050F  3  01 FF A1 
    83)      7405.3  Rx         050F  3  01 FF A1 
    84)      7505.3  Rx         050F  3  01 FF A2 
    85)      7605.3  Rx         050F  3  01 FF A2 
    86)      7705.3  Rx         050F  3  01 FF A1 
    87)      7805.3  Rx         050F  3  01 FF A2 
    88)      7905.3  Rx         050F  3  01 FF A1 
    89)      8005.3  Rx         050F  3  01 FF A2 
    90)      8105.3  Rx         050F  3  01 FF A1 
    91)      8105.6  Rx         050F  3  00 07 46 
    92)      8205.3  Rx         050F  3  01 FF A1 
    93)      8305.3  Rx         050F  3  01 FF A1 
    94)      8405.3  Rx         050F  3  01 FF A1 
    95)      8505.4  Rx         050F  3  01 FF A1 
    96)      8605.3  Rx         050F  3  01 FF A1 
    97)      8705.3  Rx         050F  3  01 FF A1 
    98)      8805.3  Rx         050F  3  01 FF A1 
    99)      8905.3  Rx         050F  3  01 FF A1 
   100)      9005.3  Rx         050F  3  01 FF A1 
   101)      9105.3  Rx         050F  3  01 FF A1 
   102)      9105.6  Rx         050F  3  00 07 47 
   103)      9205.3  Rx         050F  3  01 FF A1 
   104)      9305.4  Rx         050F  3  01 FF A1 
   105)      9405.3  Rx         050F  3  01 FF A1 
   106)      9505.3  Rx         050F  3  01 FF A1 
   107)      9605.3  Rx         050F  3  01 FF A1 
   108)      9705.3  Rx         050F  3  01 FF A1 
   109)      9805.3  Rx         050F  3  01 FF A1 
   110)      9905.3  Rx         050F  3  01 FF A1 
   111)     10005.3  Rx         050F  3  01 FF A1 
   112)     10105.3  Rx         050F  3  01 FF A1 
   113)     10105.6  Rx         050F  3  00 07 42 
   114)     10205.3  Rx         050F  3  01 FF A1 
   115)     10305.3  Rx         050F  3  01 FF A1 
   116)     10405.4  Rx         050F  3  01 FF A1 
   117)     10505.4  Rx         050F  3  01 FF A1 
   118)     10605.4  Rx         050F  3  01 FF A1 
   119)     10705.4  Rx         050F  3  01 FF A1 
   120)     10805.4  Rx         050F  3  01 FF A1 
   121)     10905.4  Rx         050F  3  01 FF A1 
   122)     11005.4  Rx         050F  3  01 FF A1 
   123)     11105.4  Rx         050F  3  01 FF A1 
   124)     11105.7  Rx         050F  3  00 07 45 
   125)     11205.4  Rx         050F  3  01 FF A1 
   126)     11305.4  Rx         050F  3  01 FF A1 
   127)     11405.4  Rx         050F  3  01 FF A1 
   128)     11505.3  Rx         050F  3  01 FF A1 
   129)     11605.3  Rx         050F  3  01 FF A1 
   130)     11705.4  Rx         050F  3  01 FF A1 
   131)     11805.3  Rx         050F  3  01 FF A1 
   132)     11905.3  Rx         050F  3  01 FF A1 
   133)     12005.3  Rx         050F  3  01 FF A1 
   134)     12105.3  Rx         050F  3  01 FF A1 
   135)     12105.6  Rx         050F  3  00 07 4A 
   136)     12205.3  Rx         050F  3  01 FF A1 
   137)     12305.3  Rx         050F  3  01 FF A1 
   138)     12405.4  Rx         050F  3  01 FF A1 
   139)     12505.3  Rx         050F  3  01 FF A1 
   140)     12605.3  Rx         050F  3  01 FF A0 
   141)     12705.3  Rx         050F  3  01 FF A0 
   142)     12714.9  Rx         0500  1  22 
   143)     12715.3  Rx         0503  1  01 
   144)     12805.4  Rx         050F  3  01 FF A0 
   145)     12905.4  Rx         050F  3  01 FF A0 
   146)     13005.3  Rx         050F  3  01 FF A1 
   147)     13105.4  Rx         050F  3  01 FF A1 
   148)     13105.6  Rx         050F  3  00 07 45 
   149)     13205.3  Rx         050F  3  01 FF A4 
   150)     13305.4  Rx         050F  3  01 FF A8 
   151)     13405.4  Rx         050F  3  01 FF AC 
   152)     13505.4  Rx         050F  3  01 FF B1 
   153)     13605.4  Rx         050F  3  01 FF B5 
   154)     13705.4  Rx         050F  3  01 FF BC 
   155)     13805.4  Rx         050F  3  01 FF C7 
   156)     13905.4  Rx         050F  3  01 FF D2 
   157)     14005.4  Rx         050F  3  01 FF DA 
   158)     14105.4  Rx         050F  3  01 FF E1 
   159)     14105.7  Rx         050F  3  00 07 4E 
   160)     14205.5  Rx         050F  3  01 FF E8 
   161)     14305.3  Rx         050F  3  01 FF EE 
   162)     14405.2  Rx         050F  3  01 FF F1 
   163)     14505.3  Rx         050F  3  01 FF F3 
   164)     14605.3  Rx         050F  3  01 FF F4 
   165)     14705.3  Rx         050F  3  01 FF F4 
   166)     14805.3  Rx         050F  3  01 FF F5 
   167)     14905.3  Rx         050F  3  01 FF F5 
   168)     15005.3  Rx         050F  3  01 FF F6 
   169)     15105.3  Rx         050F  3  01 FF F6 
   170)     15105.6  Rx         050F  3  00 07 45 
   171)     15205.3  Rx         050F  3  01 FF F6 
   172)     15305.3  Rx         050F  3  01 FF F6 
   173)     15405.3  Rx         050F  3  01 FF F7 
   174)     15505.3  Rx         050F  3  01 FF F7 
   175)     15605.3  Rx         050F  3  01 FF F7 
   176)     15705.3  Rx         050F  3  01 FF F7 
   177)     15805.3  Rx         050F  3  01 FF F8 
   178)     15905.3  Rx         050F  3  01 FF F8 
   179)     16005.3  Rx         050F  3  01 FF F8 
   180)     16105.3  Rx         050F  3  01 FF F8 
   181)     16105.6  Rx         050F  3  00 07 49 
   182)     16205.3  Rx         050F  3  01 FF F8 
   183)     16305.3  Rx         050F  3  01 FF F8 
   184)     16405.3  Rx         050F  3  01 FF F8 
   185)     16505.4  Rx         050F  3  01 FF F9 
   186)     16605.3  Rx         050F  3  01 FF F9 
   187)     16705.3  Rx         050F  3  01 FF F9 
   188)     16805.4  Rx         050F  3  01 FF F9 
   189)     16905.3  Rx         050F  3  01 FF F9 
   190)     17005.3  Rx         050F  3  01 FF FA 
   191)     17105.3  Rx         050F  3  01 FF FA 
   192)     17105.6  Rx         050F  3  00 07 47 
   193)     17205.3  Rx         050F  3  01 FF FA 
   194)     17305.3  Rx         050F  3  01 FF FB 
   195)     17405.3  Rx         050F  3  01 FF FB 
   196)     17505.3  Rx         050F  3  01 FF FB 
   197)     17605.2  Rx         050F  3  01 FF FC 
   198)     17705.2  Rx         050F  3  01 FF FD 
   199)     17805.3  Rx         050F  3  01 FF FE 
   200)     17905.2  Rx         050F  3  01 FF FF 
   201)     18005.2  Rx         050F  3  01 00 00 
   202)     18105.3  Rx         050F  3  01 00 00 
   203)     18105.6  Rx         050F  3  00 07 54 
   204)     18205.2  Rx         050F  3  01 00 00 
   205)     18305.3  Rx         050F  3  01 00 00 
   206)     18405.3  Rx         050F  3  01 00 00 
   207)     18505.3  Rx         050F  3  01 00 00 
   208)     18605.3  Rx         050F  3  01 00 01 
   209)     18705.3  Rx         050F  3  01 00 01 
   210)     18805.3  Rx         050F  3  01 00 01 
   211)     18905.2  Rx         050F  3  01 00 02 
   212)     19005.2  Rx         050F  3  01 00 03 
   213)     19105.2  Rx         050F  3  01 00 03 
   214)     19105.5  Rx         050F  3  00 07 4F 
   215)     19205.2  Rx         050F  3  01 00 05 
   216)     19305.2  Rx         050F  3  01 00 06 
   217)     19405.2  Rx         050F  3  01 00 07 
   218)     19505.2  Rx         050F  3  01 00 08 
   219)     19605.2  Rx         050F  3  01 00 08 
   220)     19705.2  Rx         050F  3  01 00 09 
   221)     19805.2  Rx         050F  3  01 00 09 
   222)     19905.2  Rx         050F  3  01 00 0A 
   223)     20005.2  Rx         050F  3  01 00 0A 
   224)     20105.2  Rx         050F  3  01 00 0B 
   225)     20105.5  Rx         050F  3  00 07 52 
   226)     20205.2  Rx         050F  3  01 00 0B 
   227)     20305.2  Rx         050F  3  01 00 0B 
   228)     20405.2  Rx         050F  3  01 00 0B 
   229)     20505.2  Rx         050F  3  01 00 0B 
   230)     20605.2  Rx         050F  3  01 00 0C 
   231)     20705.2  Rx         050F  3  01 00 0C 
   232)     20805.1  Rx         050F  3  01 00 0C 
   233)     20905.1  Rx         050F  3  01 00 0C 
   234)     21005.1  Rx         050F  3  01 00 0C 
   235)     21105.1  Rx         050F  3  01 00 0D 
   236)     21105.4  Rx         050F  3  00 07 54 
   237)     21205.1  Rx         050F  3  01 00 0D 
   238)     21305.1  Rx         050F  3  01 00 0D 
   239)     21405.1  Rx         050F  3  01 00 0E 
   240)     21505.1  Rx         050F  3  01 00 0E 
   241)     21605.1  Rx         050F  3  01 00 0F 
   242)     21705.1  Rx         050F  3  01 00 0F 
   243)     21805.1  Rx         050F  3  01 00 10 
   244)     21905.1  Rx         050F  3  01 00 10 
   245)     22005.1  Rx         050F  3  01 00 11 
   246)     22105.1  Rx         050F  3  01 00 11 
   247)     22105.4  Rx         050F  3  00 07 5B 
   248)     22205.1  Rx         050F  3  01 00 12 
   249)     22305.1  Rx         050F  3  01 00 12 
   250)     22405.1  Rx         050F  3  01 00 12 
   251)     22505.1  Rx         050F  3  01 00 12 
   252)     22605.1  Rx         050F  3  01 00 13 
   253)     22705.1  Rx         050F  3  01 00 13 
   254)     22805.0  Rx         050F  3  01 00 13 
   255)     22905.1  Rx         050F  3  01 00 14 
   256)     23005.1  Rx         050F  3  01 00 15 
   257)     23105.0  Rx         050F  3  01 00 15 
   258)     23105.3  Rx         050F  3  00 07 64 
   259)     23205.0  Rx         050F  3  01 00 16 
   260)     23305.0  Rx         050F  3  01 00 16 
   261)     23405.1  Rx         050F  3  01 00 17 
   262)     23505.0  Rx         050F  3  01 00 17 
   263)     23605.0  Rx         050F  3  01 00 18 
   264)     23705.0  Rx         050F  3  01 00 18 
   265)     23805.0  Rx         050F  3  01 00 1A 
   266)     23905.0  Rx         050F  3  01 00 1A 
   267)     24005.0  Rx         050F  3  01 00 1B 
   268)     24105.0  Rx         050F  3  01 00 1C 
   269)     24105.3  Rx         050F  3  00 07 58 
   270)     24205.1  Rx         050F  3  01 00 1D 
   271)     24305.1  Rx         050F  3  01 00 1D 
   272)     24405.1  Rx         050F  3  01 00 1D 
   273)     24505.1  Rx         050F  3  01 00 1E 
   274)     24605.1  Rx         050F  3  01 00 1E 
   275)     24705.1  Rx         050F  3  01 00 1D 
   276)     24805.1  Rx         050F  3  01 00 1B 
   277)     24905.0  Rx         050F  3  01 00 18 
   278)     25005.0  Rx         050F  3  01 00 14 
   279)     25105.0  Rx         050F  3  01 00 11 
   280)     25105.3  Rx         050F  3  00 07 52 
   281)     25205.0  Rx         050F  3  01 00 10 
   282)     25305.0  Rx         050F  3  01 00 10 
   283)     25405.0  Rx         050F  3  01 00 10 
   284)     25505.0  Rx         050F  3  01 00 10 
   285)     25605.0  Rx         050F  3  01 00 10 
   286)     25705.0  Rx         050F  3  01 00 0F 
   287)     25805.0  Rx         050F  3  01 00 10 
   288)     25905.0  Rx         050F  3  01 00 10 
   289)     26005.0  Rx         050F  3  01 00 10 
   290)     26105.0  Rx         050F  3  01 00 0F 
   291)     26105.3  Rx         050F  3  00 07 53 
   292)     26205.0  Rx         050F  3  01 00 0F 
   293)     26305.0  Rx         050F  3  01 00 0F 
   294)     26405.0  Rx         050F  3  01 00 0F 
   295)     26505.0  Rx         050F  3  01 00 10 
   296)     26605.0  Rx         050F  3  01 00 0F 
   297)     26705.0  Rx         050F  3  01 00 0F 
   298)     26805.0  Rx         050F  3  01 00 0F 
   299)     26905.0  Rx         050F  3  01 00 0F 
   300)     27005.0  Rx         050F  3  01 00 0F 
   301)     27105.0  Rx         050F  3  01 00 0F 
   302)     27105.3  Rx         050F  3  00 07 53 
   303)     27204.9  Rx         050F  3  01 00 0F 
   304)     27305.0  Rx         050F  3  01 00 0F 
   305)     27404.9  Rx         050F  3  01 00 0F 
   306)     27504.9  Rx         050F  3  01 00 0F 
   307)     27604.9  Rx         050F  3  01 00 0F 
   308)     27704.9  Rx         050F  3  01 00 11 
   309)     27804.9  Rx         050F  3  01 00 11 
   310)     27904.9  Rx         050F  3  01 00 12 
   311)     28004.9  Rx         050F  3  01 00 12 
   312)     28104.9  Rx         050F  3  01 00 13 
   313)     28105.2  Rx         050F  3  00 07 51 
   314)     28204.9  Rx         050F  3  01 00 14 
   315)     28304.9  Rx         050F  3  01 00 14 
   316)     28404.9  Rx         050F  3  01 00 15 
   317)     28504.9  Rx         050F  3  01 00 16 
   318)     28604.9  Rx         050F  3  01 00 16 
   319)     28704.9  Rx         050F  3  01 00 17 
   320)     28804.9  Rx         050F  3  01 00 17 
   321)     28904.8  Rx         050F  3  01 00 18 
   322)     29004.8  Rx         050F  3  01 00 19 
   323)     29104.9  Rx         050F  3  01 00 1A 
   324)     29105.2  Rx         050F  3  00 07 4C 
   325)     29204.8  Rx         050F  3  01 00 1B 
   326)     29304.9  Rx         050F  3  01 00 1B 
   327)     29404.8  Rx         050F  3  01 00 1C 
   328)     29504.9  Rx         050F  3  01 00 1D 
   329)     29604.8  Rx         050F  3  01 00 1E 
   330)     29704.8  Rx         050F  3  01 00 1E 
   331)     29804.9  Rx         050F  3  01 00 1F 
   332)     29904.8  Rx         050F  3  01 00 20 
   333)     30004.8  Rx         050F  3  01 00 21 
   334)     30104.8  Rx         050F  3  01 00 22 
   335)     30105.1  Rx         050F  3  00 07 3E 
   336)     30204.8  Rx         050F  3  01 00 22 
   337)     30304.8  Rx         050F  3  01 00 24 
   338)     30404.8  Rx         050F  3  01 00 25 
   339)     30504.8  Rx         050F  3  01 00 25 
   340)     30604.8  Rx         050F  3  01 00 26 
   341)     30704.8  Rx         050F  3  01 00 26 
   342)     30804.8  Rx         050F  3  01 00 27 
   343)     30904.7  Rx         050F  3  01 00 28 
   344)     31004.7  Rx         050F  3  01 00 29 
   345)     31104.7  Rx         050F  3  01 00 2A 
   346)     31105.0  Rx         050F  3  00 07 4A 
   347)     31204.7  Rx         050F  3  01 00 2B 
   348)     31304.7  Rx         050F  3  01 00 2C 
   349)     31404.7  Rx         050F  3  01 00 2D 
   350)     31504.7  Rx         050F  3  01 00 2E 
   351)     31604.7  Rx         050F  3  01 00 2F 
   352)     31704.7  Rx         050F  3  01 00 2F 
   353)     31804.7  Rx         050F  3  01 00 31 
   354)     31904.7  Rx         050F  3  01 00 32 
   355)     32004.7  Rx         050F  3  01 00 33 
   356)     32104.7  Rx         050F  3  01 00 34 
   357)     32105.0  Rx         050F  3  00 07 4F 
   358)     32204.7  Rx         050F  3  01 00 35 
   359)     32304.7  Rx         050F  3  01 00 36 
   360)     32404.7  Rx         050F  3  01 00 37 
   361)     32504.7  Rx         050F  3  01 00 38 
   362)     32604.7  Rx         050F  3  01 00 39 
   363)     32704.7  Rx         050F  3  01 00 3B 
   364)     32804.7  Rx         050F  3  01 00 3C 
   365)     32904.6  Rx         050F  3  01 00 3D 
   366)     33004.6  Rx         050F  3  01 00 3E 
   367)     33104.6  Rx         050F  3  01 00 3F 
   368)     33104.9  Rx         050F  3  00 07 52 
   369)     33204.6  Rx         050F  3  01 00 40 
   370)     33304.6  Rx         050F  3  01 00 41 
   371)     33404.6  Rx         050F  3  01 00 41 
   372)     33504.6  Rx         050F  3  01 00 42 
   373)     33604.6  Rx         050F  3  01 00 43 
   374)     33704.6  Rx         050F  3  01 00 44 
   375)     33804.6  Rx         050F  3  01 00 45 
   376)     33904.5  Rx         050F  3  01 00 46 
   377)     34004.5  Rx         050F  3  01 00 47 
   378)     34104.5  Rx         050F  3  01 00 48 
   379)     34104.8  Rx         050F  3  00 07 55 
   380)     34204.5  Rx         050F  3  01 00 4A 
   381)     34304.6  Rx         050F  3  01 00 4C 
   382)     34404.5  Rx         050F  3  01 00 4E 
   383)     34504.5  Rx         050F  3  01 00 50 
   384)     34604.5  Rx         050F  3  01 00 51 
   385)     34704.5  Rx         050F  3  01 00 52 
   386)     34804.5  Rx         050F  3  01 00 54 
   387)     34904.7  Rx         050F  3  01 00 56 
   388)     35004.6  Rx         050F  3  01 00 56 
   389)     35104.6  Rx         050F  3  01 00 57 
   390)     35104.9  Rx         050F  3  00 07 55 
   391)     35204.6  Rx         050F  3  01 00 57 
   392)     35304.6  Rx         050F  3  01 00 56 
   393)     35404.7  Rx         050F  3  01 00 4C 
   394)     35504.6  Rx         050F  3  01 00 3E 
   395)     35604.7  Rx         050F  3  01 00 30 
   396)     35704.6  Rx         050F  3  01 00 23 
   397)     35804.6  Rx         050F  3  01 00 1A 
   398)     35904.5  Rx         050F  3  01 00 13 
   399)     36004.5  Rx         050F  3  01 00 0E 
   400)     36104.5  Rx         050F  3  01 00 0C 
   401)     36104.8  Rx         050F  3  00 07 51 
   402)     36204.5  Rx         050F  3  01 00 0C 
   403)     36304.5  Rx         050F  3  01 00 0B 
   404)     36404.5  Rx         050F  3  01 00 0B 
   405)     36504.5  Rx         050F  3  01 00 0B 
   406)     36604.5  Rx         050F  3  01 00 0B 
   407)     36704.5  Rx         050F  3  01 00 0B 
   408)     36804.5  Rx         050F  3  01 00 0B 
   409)     36904.5  Rx         050F  3  01 00 0B 
   410)     37004.5  Rx         050F  3  01 00 0B 
   411)     37104.5  Rx         050F  3  01 00 0B 
   412)     37104.8  Rx         050F  3  00 07 53 
   413)     37204.5  Rx         050F  3  01 00 0B 
   414)     37304.5  Rx         050F  3  01 00 0B 
   415)     37404.5  Rx         050F  3  01 00 0B 
   416)     37504.4  Rx         050F  3  01 00 0B 
   417)     37604.4  Rx         050F  3  01 00 0B 
   418)     37704.4  Rx         050F  3  01 00 0B 
   419)     37804.4  Rx         050F  3  01 00 0B 
   420)     37904.4  Rx         050F  3  01 00 0B 
   421)     38004.4  Rx         050F  3  01 00 0D 
   422)     38104.4  Rx         050F  3  01 00 0F 
   423)     38104.7  Rx         050F  3  00 07 57 
   424)     38204.4  Rx         050F  3  01 00 11 
   425)     38304.4  Rx         050F  3  01 00 12 
   426)     38404.4  Rx         050F  3  01 00 13 
   427)     38504.4  Rx         050F  3  01 00 14 
   428)     38604.4  Rx         050F  3  01 00 15 
   429)     38704.4  Rx         050F  3  01 00 16 
   430)     38804.4  Rx         050F  3  01 00 17 
   431)     38904.4  Rx         050F  3  01 00 18 
   432)     39004.4  Rx         050F  3  01 00 19 
   433)     39104.4  Rx         050F  3  01 00 1B 
   434)     39104.7  Rx         050F  3  00 07 60 
   435)     39204.4  Rx         050F  3  01 00 1C 
   436)     39304.3  Rx         050F  3  01 00 1D 
   437)     39404.3  Rx         050F  3  01 00 1E 
   438)     39504.3  Rx         050F  3  01 00 1F 
   439)     39604.3  Rx         050F  3  01 00 21 
   440)     39704.3  Rx         050F  3  01 00 22 
   441)     39804.3  Rx         050F  3  01 00 23 
   442)     39904.3  Rx         050F  3  01 00 24 
   443)     40004.3  Rx         050F  3  01 00 24 
   444)     40104.3  Rx         050F  3  01 00 25 
   445)     40104.6  Rx         050F  3  00 07 5F 
   446)     40204.3  Rx         050F  3  01 00 25 
   447)     40304.3  Rx         050F  3  01 00 26 
   448)     40404.3  Rx         050F  3  01 00 26 
   449)     40504.3  Rx         050F  3  01 00 27 
   450)     40604.3  Rx         050F  3  01 00 27 
   451)     40704.3  Rx         050F  3  01 00 28 
   452)     40804.2  Rx         050F  3  01 00 29 
   453)     40904.3  Rx         050F  3  01 00 2A 
   454)     41004.3  Rx         050F  3  01 00 2B 
   455)     41104.3  Rx         050F  3  01 00 2D 
   456)     41104.6  Rx         050F  3  00 07 65 
   457)     41204.3  Rx         050F  3  01 00 2D 
   458)     41304.3  Rx         050F  3  01 00 2E 
   459)     41404.3  Rx         050F  3  01 00 30 
   460)     41504.3  Rx         050F  3  01 00 31 
   461)     41604.3  Rx         050F  3  01 00 32 
   462)     41704.3  Rx         050F  3  01 00 35 
   463)     41804.3  Rx         050F  3  01 00 37 
   464)     41904.3  Rx         050F  3  01 00 38 
   465)     42004.3  Rx         050F  3  01 00 3A 
   466)     42104.3  Rx         050F  3  01 00 3B 
   467)     42104.6  Rx         050F  3  00 07 63 
   468)     42204.3  Rx         050F  3  01 00 3C 
   469)     42304.3  Rx         050F  3  01 00 3D 
   470)     42404.3  Rx         050F  3  01 00 3F 
   471)     42504.3  Rx         050F  3  01 00 41 
   472)     42604.3  Rx         050F  3  01 00 42 
   473)     42704.3  Rx         050F  3  01 00 44 
   474)     42804.3  Rx         050F  3  01 00 45 
   475)     42904.3  Rx         050F  3  01 00 46 
   476)     43004.3  Rx         050F  3  01 00 47 
   477)     43104.3  Rx         050F  3  01 00 49 
   478)     43104.6  Rx         050F  3  00 07 5E 
   479)     43204.3  Rx         050F  3  01 00 4A 
   480)     43304.3  Rx         050F  3  01 00 4C 
   481)     43404.4  Rx         050F  3  01 00 4F 
   482)     43504.4  Rx         050F  3  01 00 52 
   483)     43604.3  Rx         050F  3  01 00 54 
   484)     43704.3  Rx         050F  3  01 00 55 
   485)     43804.3  Rx         050F  3  01 00 57 
   486)     43904.4  Rx         050F  3  01 00 58 
   487)     44004.4  Rx         050F  3  01 00 59 
   488)     44104.3  Rx         050F  3  01 00 5A 
   489)     44104.6  Rx         050F  3  00 07 70 
   490)     44204.3  Rx         050F  3  01 00 5B 
   491)     44304.3  Rx         050F  3  01 00 5B 
   492)     44404.3  Rx         050F  3  01 00 5C 
   493)     44504.3  Rx         050F  3  01 00 5C 
   494)     44604.3  Rx         050F  3  01 00 5D 
   495)     44704.3  Rx         050F  3  01 00 5E 
   496)     44804.3  Rx         050F  3  01 00 5E 
   497)     44904.3  Rx         050F  3  01 00 5E 
   498)     45004.3  Rx         050F  3  01 00 5F 
   499)     45104.2  Rx         050F  3  01 00 5F 
   500)     45104.5  Rx         050F  3  00 07 79 
   501)     45204.3  Rx         050F  3  01 00 60 
   502)     45304.3  Rx         050F  3  01 00 60 
   503)     45404.3  Rx         050F  3  01 00 61 
   504)     45504.3  Rx         050F  3  01 00 61 
   505)     45604.3  Rx         050F  3  01 00 62 
   506)     45704.3  Rx         050F  3  01 00 62 
   507)     45804.2  Rx         050F  3  01 00 64 
   508)     45904.4  Rx         050F  3  01 00 65 
   509)     46004.3  Rx         050F  3  01 00 66 
   510)     46104.4  Rx         050F  3  01 00 66 
   511)     46104.7  Rx         050F  3  00 07 75 
   512)     46204.3  Rx         050F  3  01 00 66 
   513)     46304.4  Rx         050F  3  01 00 63 
   514)     46404.4  Rx         050F  3  01 00 5D 
   515)     46504.4  Rx         050F  3  01 00 4C 
   516)     46604.4  Rx         050F  3  01 00 3A 
   517)     46704.4  Rx         050F  3  01 00 2C 
   518)     46804.4  Rx         050F  3  01 00 20 
   519)     46904.3  Rx         050F  3  01 00 16 
   520)     47004.3  Rx         050F  3  01 00 10 
   521)     47104.3  Rx         050F  3  01 00 0B 
   522)     47104.6  Rx         050F  3  00 07 77 
   523)     47204.3  Rx         050F  3  01 00 09 
   524)     47304.3  Rx         050F  3  01 00 07 
   525)     47404.3  Rx         050F  3  01 00 07 
   526)     47504.3  Rx         050F  3  01 00 07 
   527)     47604.3  Rx         050F  3  01 00 07 
   528)     47704.2  Rx         050F  3  01 00 07 
   529)     47804.2  Rx         050F  3  01 00 07 
   530)     47904.2  Rx         050F  3  01 00 07 
   531)     48004.2  Rx         050F  3  01 00 07 
   532)     48104.2  Rx         050F  3  01 00 07 
   533)     48104.5  Rx         050F  3  00 07 84 
   534)     48204.2  Rx         050F  3  01 00 07 
   535)     48304.2  Rx         050F  3  01 00 07 
   536)     48404.2  Rx         050F  3  01 00 08 
   537)     48504.2  Rx         050F  3  01 00 0A 
   538)     48604.1  Rx         050F  3  01 00 0D 
   539)     48704.1  Rx         050F  3  01 00 0F 
   540)     48804.1  Rx         050F  3  01 00 10 
   541)     48904.1  Rx         050F  3  01 00 12 
   542)     49004.1  Rx         050F  3  01 00 13 
   543)     49104.1  Rx         050F  3  01 00 14 
   544)     49104.4  Rx         050F  3  00 07 82 
   545)     49204.1  Rx         050F  3  01 00 16 
   546)     49304.1  Rx         050F  3  01 00 17 
   547)     49404.1  Rx         050F  3  01 00 1A 
   548)     49504.0  Rx         050F  3  01 00 1C 
   549)     49604.1  Rx         050F  3  01 00 1E 
   550)     49704.1  Rx         050F  3  01 00 20 
   551)     49804.1  Rx         050F  3  01 00 22 
   552)     49904.1  Rx         050F  3  01 00 23 
   553)     50004.0  Rx         050F  3  01 00 25 
   554)     50104.0  Rx         050F  3  01 00 25 
   555)     50104.3  Rx         050F  3  00 07 87 
   556)     50204.1  Rx         050F  3  01 00 26 
   557)     50304.1  Rx         050F  3  01 00 27 
   558)     50404.1  Rx         050F  3  01 00 27 
   559)     50504.1  Rx         050F  3  01 00 28 
   560)     50604.1  Rx         050F  3  01 00 29 
   561)     50704.0  Rx         050F  3  01 00 2A 
   562)     50804.0  Rx         050F  3  01 00 2B 
   563)     50904.1  Rx         050F  3  01 00 2E 
   564)     51004.0  Rx         050F  3  01 00 30 
   565)     51104.0  Rx         050F  3  01 00 33 
   566)     51104.3  Rx         050F  3  00 07 8C 
   567)     51204.0  Rx         050F  3  01 00 36 
   568)     51304.1  Rx         050F  3  01 00 3A 
   569)     51404.0  Rx         050F  3  01 00 3C 
   570)     51504.0  Rx         050F  3  01 00 3E 
   571)     51604.0  Rx         050F  3  01 00 41 
   572)     51704.0  Rx         050F  3  01 00 44 
   573)     51804.0  Rx         050F  3  01 00 46 
   574)     51904.0  Rx         050F  3  01 00 48 
   575)     52004.1  Rx         050F  3  01 00 49 
   576)     52104.1  Rx         050F  3  01 00 4A 
   577)     52104.4  Rx         050F  3  00 07 8D 
   578)     52204.0  Rx         050F  3  01 00 4B 
   579)     52304.1  Rx         050F  3  01 00 49 
   580)     52404.1  Rx         050F  3  01 00 40 
   581)     52504.1  Rx         050F  3  01 00 32 
   582)     52604.0  Rx         050F  3  01 00 26 
   583)     52704.0  Rx         050F  3  01 00 1D 
   584)     52803.9  Rx         050F  3  01 00 16 
   585)     52903.9  Rx         050F  3  01 00 10 
   586)     53003.9  Rx         050F  3  01 00 0D 
   587)     53103.9  Rx         050F  3  01 00 0B 
   588)     53104.2  Rx         050F  3  00 07 89 
   589)     53203.9  Rx         050F  3  01 00 0B 
   590)     53303.9  Rx         050F  3  01 00 0B 
   591)     53403.9  Rx         050F  3  01 00 0A 
   592)     53503.9  Rx         050F  3  01 00 0B 
   593)     53603.9  Rx         050F  3  01 00 0A 
   594)     53703.9  Rx         050F  3  01 00 0A 
   595)     53803.9  Rx         050F  3  01 00 0B 
   596)     53903.9  Rx         050F  3  01 00 0A 
   597)     54003.9  Rx         050F  3  01 00 0C 
   598)     54103.9  Rx         050F  3  01 00 0E 
   599)     54104.2  Rx         050F  3  00 07 87 
   600)     54203.9  Rx         050F  3  01 00 11 
   601)     54303.9  Rx         050F  3  01 00 13 
   602)     54403.9  Rx         050F  3  01 00 14 
   603)     54503.9  Rx         050F  3  01 00 16 
   604)     54603.9  Rx         050F  3  01 00 19 
   605)     54703.9  Rx         050F  3  01 00 1B 
   606)     54803.9  Rx         050F  3  01 00 1E 
   607)     54903.8  Rx         050F  3  01 00 20 
   608)     55003.9  Rx         050F  3  01 00 22 
   609)     55103.9  Rx         050F  3  01 00 24 
   610)     55104.2  Rx         050F  3  00 07 96 
   611)     55203.8  Rx         050F  3  01 00 25 
   612)     55303.9  Rx         050F  3  01 00 27 
   613)     55403.9  Rx         050F  3  01 00 28 
   614)     55503.9  Rx         050F  3  01 00 29 
   615)     55603.8  Rx         050F  3  01 00 2B 
   616)     55703.9  Rx         050F  3  01 00 2D 
   617)     55803.9  Rx         050F  3  01 00 2F 
   618)     55903.8  Rx         050F  3  01 00 33 
   619)     56003.8  Rx         050F  3  01 00 37 
   620)     56103.8  Rx         050F  3  01 00 3B 
   621)     56104.1  Rx         050F  3  00 07 A1 
   622)     56203.8  Rx         050F  3  01 00 3F 
   623)     56303.8  Rx         050F  3  01 00 43 
   624)     56403.9  Rx         050F  3  01 00 46 
   625)     56503.9  Rx         050F  3  01 00 49 
   626)     56603.8  Rx         050F  3  01 00 4D 
   627)     56703.9  Rx         050F  3  01 00 50 
   628)     56803.8  Rx         050F  3  01 00 53 
   629)     56903.8  Rx         050F  3  01 00 55 
   630)     57003.8  Rx         050F  3  01 00 57 
   631)     57103.8  Rx         050F  3  01 00 59 
   632)     57104.1  Rx         050F  3  00 07 A3 
   633)     57203.8  Rx         050F  3  01 00 5C 
   634)     57303.8  Rx         050F  3  01 00 5D 
   635)     57403.9  Rx         050F  3  01 00 5F 
   636)     57503.8  Rx         050F  3  01 00 60 
   637)     57603.9  Rx         050F  3  01 00 61 
   638)     57703.9  Rx         050F  3  01 00 62 
   639)     57804.0  Rx         050F  3  01 00 63 
   640)     57904.0  Rx         050F  3  01 00 65 
   641)     58004.0  Rx         050F  3  01 00 66 
   642)     58104.0  Rx         050F  3  01 00 66 
   643)     58104.3  Rx         050F  3  00 07 A4 
   644)     58204.0  Rx         050F  3  01 00 64 
   645)     58304.0  Rx         050F  3  01 00 5F 
   646)     58404.0  Rx         050F  3  01 00 54 
   647)     58504.0  Rx         050F  3  01 00 41 
   648)     58604.0  Rx         050F  3  01 00 32 
   649)     58704.0  Rx         050F  3  01 00 23 
   650)     58804.0  Rx         050F  3  01 00 19 
   651)     58903.9  Rx         050F  3  01 00 12 
   652)     59003.9  Rx         050F  3  01 00 0C 
   653)     59103.9  Rx         050F  3  01 00 08 
   654)     59104.2  Rx         050F  3  00 07 A2 
   655)     59203.8  Rx         050F  3  01 00 06 
   656)     59303.9  Rx         050F  3  01 00 06 
   657)     59403.8  Rx         050F  3  01 00 05 
   658)     59503.8  Rx         050F  3  01 00 05 
   659)     59603.8  Rx         050F  3  01 00 05 
   660)     59703.8  Rx         050F  3  01 00 05 
   661)     59803.8  Rx         050F  3  01 00 06 
   662)     59903.8  Rx         050F  3  01 00 0A 
   663)     60003.8  Rx         050F  3  01 00 0F 
   664)     60103.8  Rx         050F  3  01 00 12 
   665)     60104.1  Rx         050F  3  00 07 AC 
   666)     60203.8  Rx         050F  3  01 00 14 
   667)     60303.8  Rx         050F  3  01 00 17 
   668)     60403.8  Rx         050F  3  01 00 1A 
   669)     60503.8  Rx         050F  3  01 00 1D 
   670)     60603.8  Rx         050F  3  01 00 20 
   671)     60703.8  Rx         050F  3  01 00 23 
   672)     60803.8  Rx         050F  3  01 00 25 
   673)     60903.8  Rx         050F  3  01 00 27 
   674)     61003.8  Rx         050F  3  01 00 29 
   675)     61103.8  Rx         050F  3  01 00 2B 
   676)     61104.1  Rx         050F  3  00 07 AE 
   677)     61203.7  Rx         050F  3  01 00 2D 
   678)     61303.8  Rx         050F  3  01 00 32 
   679)     61403.8  Rx         050F  3  01 00 37 
   680)     61503.8  Rx         050F  3  01 00 3D 
   681)     61603.8  Rx         050F  3  01 00 42 
   682)     61703.7  Rx         050F  3  01 00 46 
   683)     61803.7  Rx         050F  3  01 00 4B 
   684)     61903.7  Rx         050F  3  01 00 4F 
   685)     62003.7  Rx         050F  3  01 00 53 
   686)     62103.7  Rx         050F  3  01 00 55 
   687)     62104.0  Rx         050F  3  00 07 AD 
   688)     62203.7  Rx         050F  3  01 00 59 
   689)     62303.7  Rx         050F  3  01 00 5B 
   690)     62403.7  Rx         050F  3  01 00 5D 
   691)     62503.7  Rx         050F  3  01 00 5F 
   692)     62603.7  Rx         050F  3  01 00 61 
   693)     62703.6  Rx         050F  3  01 00 63 
   694)     62803.6  Rx         050F  3  01 00 65 
   695)     62903.6  Rx         050F  3  01 00 68 
   696)     63003.6  Rx         050F  3  01 00 6B 
   697)     63103.6  Rx         050F  3  01 00 6D 
   698)     63103.9  Rx         050F  3  00 07 B6 
   699)     63203.6  Rx         050F  3  01 00 6E 
   700)     63303.6  Rx         050F  3  01 00 71 
   701)     63403.6  Rx         050F  3  01 00 74 
   702)     63503.6  Rx         050F  3  01 00 7B 
   703)     63603.6  Rx         050F  3  01 00 7E 
   704)     63703.6  Rx         050F  3  01 00 82 
   705)     63803.6  Rx         050F  3  01 00 85 
   706)     63903.6  Rx         050F  3  01 00 89 
   707)     64003.6  Rx         050F  3  01 00 8D 
   708)     64103.6  Rx         050F  3  01 00 8E 
   709)     64103.9  Rx         050F  3  00 07 B7 
   710)     64203.6  Rx         050F  3  01 00 8F 
   711)     64303.6  Rx         050F  3  01 00 8A 
   712)     64403.7  Rx         050F  3  01 00 7C 
   713)     64503.6  Rx         050F  3  01 00 6D 
   714)     64603.6  Rx         050F  3  01 00 5E 
   715)     64703.7  Rx         050F  3  01 00 4A 
   716)     64803.6  Rx         050F  3  01 00 36 
   717)     64903.7  Rx         050F  3  01 00 28 
   718)     65003.7  Rx         050F  3  01 00 1C 
   719)     65103.6  Rx         050F  3  01 00 13 
   720)     65103.9  Rx         050F  3  00 07 B5 
   721)     65203.5  Rx         050F  3  01 00 0B 
   722)     65303.6  Rx         050F  3  01 00 06 
   723)     65403.5  Rx         050F  3  01 00 04 
   724)     65503.5  Rx         050F  3  01 00 03 
   725)     65603.5  Rx         050F  3  01 00 03 
   726)     65703.5  Rx         050F  3  01 00 02 
   727)     65803.5  Rx         050F  3  01 00 02 
   728)     65903.5  Rx         050F  3  01 00 07 
   729)     66003.5  Rx         050F  3  01 00 0C 
   730)     66103.5  Rx         050F  3  01 00 10 
   731)     66103.8  Rx         050F  3  00 07 B9 
   732)     66203.5  Rx         050F  3  01 00 13 
   733)     66303.5  Rx         050F  3  01 00 17 
   734)     66403.5  Rx         050F  3  01 00 1C 
   735)     66503.5  Rx         050F  3  01 00 20 
   736)     66603.5  Rx         050F  3  01 00 24 
   737)     66703.5  Rx         050F  3  01 00 26 
   738)     66803.5  Rx         050F  3  01 00 29 
   739)     66903.5  Rx         050F  3  01 00 2D 
   740)     67003.5  Rx         050F  3  01 00 34 
   741)     67103.5  Rx         050F  3  01 00 3C 
   742)     67103.8  Rx         050F  3  00 07 C6 
   743)     67203.4  Rx         050F  3  01 00 43 
   744)     67303.5  Rx         050F  3  01 00 49 
   745)     67403.5  Rx         050F  3  01 00 50 
   746)     67503.5  Rx         050F  3  01 00 55 
   747)     67603.4  Rx         050F  3  01 00 59 
   748)     67703.4  Rx         050F  3  01 00 5C 
   749)     67803.4  Rx         050F  3  01 00 5F 
   750)     67903.4  Rx         050F  3  01 00 63 
   751)     68003.4  Rx         050F  3  01 00 66 
   752)     68103.4  Rx         050F  3  01 00 6A 
   753)     68103.7  Rx         050F  3  00 07 C6 
   754)     68203.4  Rx         050F  3  01 00 6C 
   755)     68303.4  Rx         050F  3  01 00 6F 
   756)     68403.4  Rx         050F  3  01 00 72 
   757)     68503.4  Rx         050F  3  01 00 79 
   758)     68603.4  Rx         050F  3  01 00 7E 
   759)     68703.4  Rx         050F  3  01 00 81 
   760)     68803.4  Rx         050F  3  01 00 86 
   761)     68903.3  Rx         050F  3  01 00 8C 
   762)     69003.3  Rx         050F  3  01 00 91 
   763)     69103.3  Rx         050F  3  01 00 96 
   764)     69103.6  Rx         050F  3  00 07 C3 
   765)     69203.3  Rx         050F  3  01 00 9B 
   766)     69303.3  Rx         050F  3  01 00 9F 
   767)     69403.3  Rx         050F  3  01 00 A3 
   768)     69503.3  Rx         050F  3  01 00 A6 
   769)     69603.3  Rx         050F  3  01 00 AA 
   770)     69703.2  Rx         050F  3  01 00 AE 
   771)     69803.2  Rx         050F  3  01 00 B1 
   772)     69903.2  Rx         050F  3  01 00 B3 
   773)     70003.2  Rx         050F  3  01 00 B7 
   774)     70103.3  Rx         050F  3  01 00 B9 
   775)     70103.6  Rx         050F  3  00 07 BA 
   776)     70203.2  Rx         050F  3  01 00 BD 
   777)     70303.3  Rx         050F  3  01 00 BF 
   778)     70403.3  Rx         050F  3  01 00 C0 
   779)     70503.3  Rx         050F  3  01 00 C0 
   780)     70603.2  Rx         050F  3  01 00 BC 
   781)     70703.2  Rx         050F  3  01 00 B3 
   782)     70803.2  Rx         050F  3  01 00 A5 
   783)     70903.2  Rx         050F  3  01 00 8C 
   784)     71003.2  Rx         050F  3  01 00 78 
   785)     71103.2  Rx         050F  3  01 00 66 
   786)     71103.5  Rx         050F  3  00 07 C1 
   787)     71203.1  Rx         050F  3  01 00 53 
   788)     71303.2  Rx         050F  3  01 00 3D 
   789)     71403.1  Rx         050F  3  01 00 2E 
   790)     71503.1  Rx         050F  3  01 00 22 
   791)     71603.1  Rx         050F  3  01 00 1A 
   792)     71703.0  Rx         050F  3  01 00 14 
   793)     71803.0  Rx         050F  3  01 00 0F 
   794)     71903.0  Rx         050F  3  01 00 0D 
   795)     72003.0  Rx         050F  3  01 00 0B 
   796)     72102.9  Rx         050F  3  01 00 0B 
   797)     72103.2  Rx         050F  3  00 07 D6 
   798)     72202.9  Rx         050F  3  01 00 0B 
   799)     72302.9  Rx         050F  3  01 00 0B 
   800)     72402.9  Rx         050F  3  01 00 0E 
   801)     72502.9  Rx         050F  3  01 00 11 
   802)     72602.9  Rx         050F  3  01 00 13 
   803)     72702.9  Rx         050F  3  01 00 17 
   804)     72802.9  Rx         050F  3  01 00 1C 
   805)     72902.9  Rx         050F  3  01 00 20 
   806)     73002.9  Rx         050F  3  01 00 24 
   807)     73102.8  Rx         050F  3  01 00 28 
   808)     73103.1  Rx         050F  3  00 07 DB 
   809)     73202.8  Rx         050F  3  01 00 2D 
   810)     73302.9  Rx         050F  3  01 00 36 
   811)     73402.9  Rx         050F  3  01 00 40 
   812)     73502.9  Rx         050F  3  01 00 49 
   813)     73602.8  Rx         050F  3  01 00 51 
   814)     73702.9  Rx         050F  3  01 00 57 
   815)     73802.8  Rx         050F  3  01 00 5C 
   816)     73902.8  Rx         050F  3  01 00 61 
   817)     74002.8  Rx         050F  3  01 00 67 
   818)     74102.8  Rx         050F  3  01 00 6B 
   819)     74103.1  Rx         050F  3  00 07 EC 
   820)     74202.8  Rx         050F  3  01 00 6E 
   821)     74302.8  Rx         050F  3  01 00 74 
   822)     74402.8  Rx         050F  3  01 00 7C 
   823)     74502.8  Rx         050F  3  01 00 82 
   824)     74602.8  Rx         050F  3  01 00 88 
   825)     74702.8  Rx         050F  3  01 00 8F 
   826)     74802.8  Rx         050F  3  01 00 96 
   827)     74902.8  Rx         050F  3  01 00 9B 
   828)     75002.8  Rx         050F  3  01 00 A0 
   829)     75102.7  Rx         050F  3  01 00 A4 
   830)     75103.0  Rx         050F  3  00 07 ED 
   831)     75202.7  Rx         050F  3  01 00 A8 
   832)     75302.7  Rx         050F  3  01 00 AC 
   833)     75402.7  Rx         050F  3  01 00 AF 
   834)     75502.7  Rx         050F  3  01 00 B2 
   835)     75602.7  Rx         050F  3  01 00 B5 
   836)     75702.7  Rx         050F  3  01 00 B9 
   837)     75802.7  Rx         050F  3  01 00 BD 
   838)     75902.6  Rx         050F  3  01 00 C1 
   839)     76002.6  Rx         050F  3  01 00 C4 
   840)     76102.6  Rx         050F  3  01 00 C7 
   841)     76102.9  Rx         050F  3  00 07 F4 
   842)     76202.6  Rx         050F  3  01 00 CB 
   843)     76302.6  Rx         050F  3  01 00 CE 
   844)     76402.6  Rx         050F  3  01 00 D0 
   845)     76502.6  Rx         050F  3  01 00 D4 
   846)     76602.6  Rx         050F  3  01 00 D6 
   847)     76702.7  Rx         050F  3  01 00 D8 
   848)     76802.6  Rx         050F  3  01 00 DA 
   849)     76902.6  Rx         050F  3  01 00 DB 
   850)     77002.7  Rx         050F  3  01 00 DC 
   851)     77102.6  Rx         050F  3  01 00 DC 
   852)     77102.9  Rx         050F  3  00 07 F4 
   853)     77202.6  Rx         050F  3  01 00 DB 
   854)     77302.6  Rx         050F  3  01 00 DA 
   855)     77402.6  Rx         050F  3  01 00 D3 
   856)     77502.6  Rx         050F  3  01 00 C6 
   857)     77602.6  Rx         050F  3  01 00 B7 
   858)     77702.6  Rx         050F  3  01 00 A7 
   859)     77802.6  Rx         050F  3  01 00 91 
   860)     77902.6  Rx         050F  3  01 00 79 
   861)     78002.6  Rx         050F  3  01 00 68 
   862)     78102.5  Rx         050F  3  01 00 55 
   863)     78102.8  Rx         050F  3  00 08 00 
   864)     78202.5  Rx         050F  3  01 00 41 
   865)     78302.5  Rx         050F  3  01 00 32 
   866)     78402.6  Rx         050F  3  01 00 24 
   867)     78502.6  Rx         050F  3  01 00 1B 
   868)     78602.5  Rx         050F  3  01 00 13 
   869)     78702.4  Rx         050F  3  01 00 0C 
   870)     78802.4  Rx         050F  3  01 00 08 
   871)     78902.4  Rx         050F  3  01 00 06 
   872)     79002.4  Rx         050F  3  01 00 05 
   873)     79102.4  Rx         050F  3  01 00 05 
   874)     79102.7  Rx         050F  3  00 08 0D 
   875)     79202.4  Rx         050F  3  01 00 09 
   876)     79302.4  Rx         050F  3  01 00 0F 
   877)     79402.4  Rx         050F  3  01 00 13 
   878)     79502.4  Rx         050F  3  01 00 18 
   879)     79602.4  Rx         050F  3  01 00 1E 
   880)     79702.4  Rx         050F  3  01 00 23 
   881)     79802.4  Rx         050F  3  01 00 28 
   882)     79902.3  Rx         050F  3  01 00 30 
   883)     80002.4  Rx         050F  3  01 00 3D 
   884)     80102.3  Rx         050F  3  01 00 49 
   885)     80102.6  Rx         050F  3  00 08 11 
   886)     80202.4  Rx         050F  3  01 00 53 
   887)     80302.4  Rx         050F  3  01 00 5A 
   888)     80402.4  Rx         050F  3  01 00 61 
   889)     80502.4  Rx         050F  3  01 00 67 
   890)     80602.3  Rx         050F  3  01 00 6D 
   891)     80702.4  Rx         050F  3  01 00 74 
   892)     80802.4  Rx         050F  3  01 00 7C 
   893)     80902.4  Rx         050F  3  01 00 84 
   894)     81002.4  Rx         050F  3  01 00 8E 
   895)     81102.3  Rx         050F  3  01 00 96 
   896)     81102.6  Rx         050F  3  00 08 0F 
   897)     81202.3  Rx         050F  3  01 00 9C 
   898)     81302.3  Rx         050F  3  01 00 A2 
   899)     81402.4  Rx         050F  3  01 00 A6 
   900)     81502.4  Rx         050F  3  01 00 AA 
   901)     81602.3  Rx         050F  3  01 00 AE 
   902)     81702.4  Rx         050F  3  01 00 B2 
   903)     81802.3  Rx         050F  3  01 00 B6 
   904)     81902.4  Rx         050F  3  01 00 BB 
   905)     82002.4  Rx         050F  3  01 00 C0 
   906)     82102.4  Rx         050F  3  01 00 C5 
   907)     82102.7  Rx         050F  3  00 08 0B 
   908)     82202.4  Rx         050F  3  01 00 C8 
   909)     82302.4  Rx         050F  3  01 00 CC 
   910)     82402.4  Rx         050F  3  01 00 CF 
   911)     82502.3  Rx         050F  3  01 00 D2 
   912)     82602.3  Rx         050F  3  01 00 D6 
   913)     82702.3  Rx         050F  3  01 00 D9 
   914)     82802.3  Rx         050F  3  01 00 DB 
   915)     82902.3  Rx         050F  3  01 00 DC 
   916)     83002.3  Rx         050F  3  01 00 DD 
   917)     83102.2  Rx         050F  3  01 00 DF 
   918)     83102.5  Rx         050F  3  00 08 0F 
   919)     83202.2  Rx         050F  3  01 00 E2 
   920)     83302.2  Rx         050F  3  01 00 E5 
   921)     83402.2  Rx         050F  3  01 00 E9 
   922)     83502.2  Rx         050F  3  01 00 EB 
   923)     83602.3  Rx         050F  3  01 00 F0 
   924)     83702.3  Rx         050F  3  01 00 F4 
   925)     83802.3  Rx         050F  3  01 00 F9 
   926)     83902.3  Rx         050F  3  01 00 FB 
   927)     84002.3  Rx         050F  3  01 00 FB 
   928)     84102.3  Rx         050F  3  01 00 FC 
   929)     84102.6  Rx         050F  3  00 08 14 
   930)     84202.3  Rx         050F  3  01 00 FA 
   931)     84302.3  Rx         050F  3  01 00 F4 
   932)     84402.3  Rx         050F  3  01 00 EC 
   933)     84502.3  Rx         050F  3  01 00 E3 
   934)     84602.3  Rx         050F  3  01 00 DD 
   935)     84702.3  Rx         050F  3  01 00 D4 
   936)     84802.3  Rx         050F  3  01 00 C8 
   937)     84902.3  Rx         050F  3  01 00 B8 
   938)     85002.2  Rx         050F  3  01 00 AA 
   939)     85102.3  Rx         050F  3  01 00 97 
   940)     85102.6  Rx         050F  3  00 08 19 
   941)     85202.3  Rx         050F  3  01 00 81 
   942)     85302.3  Rx         050F  3  01 00 6F 
   943)     85402.3  Rx         050F  3  01 00 60 
   944)     85502.3  Rx         050F  3  01 00 4E 
   945)     85602.3  Rx         050F  3  01 00 3B 
   946)     85702.2  Rx         050F  3  01 00 2D 
   947)     85802.2  Rx         050F  3  01 00 1F 
   948)     85902.1  Rx         050F  3  01 00 16 
   949)     86002.1  Rx         050F  3  01 00 0C 
   950)     86102.1  Rx         050F  3  01 00 05 
   951)     86102.4  Rx         050F  3  00 08 1A 
   952)     86202.1  Rx         050F  3  01 00 02 
   953)     86302.1  Rx         050F  3  01 00 01 
   954)     86402.1  Rx         050F  3  01 00 01 
   955)     86502.1  Rx         050F  3  01 00 07 
   956)     86602.1  Rx         050F  3  01 00 0E 
   957)     86702.1  Rx         050F  3  01 00 17 
   958)     86802.1  Rx         050F  3  01 00 1E 
   959)     86902.1  Rx         050F  3  01 00 24 
   960)     87002.1  Rx         050F  3  01 00 2C 
   961)     87102.0  Rx         050F  3  01 00 3A 
   962)     87102.3  Rx         050F  3  00 08 26 
   963)     87202.0  Rx         050F  3  01 00 48 
   964)     87302.0  Rx         050F  3  01 00 53 
   965)     87402.1  Rx         050F  3  01 00 5C 
   966)     87502.0  Rx         050F  3  01 00 65 
   967)     87602.0  Rx         050F  3  01 00 6C 
   968)     87702.0  Rx         050F  3  01 00 76 
   969)     87802.0  Rx         050F  3  01 00 7F 
   970)     87902.0  Rx         050F  3  01 00 8A 
   971)     88002.0  Rx         050F  3  01 00 95 
   972)     88102.0  Rx         050F  3  01 00 9C 
   973)     88102.3  Rx         050F  3  00 08 30 
   974)     88202.0  Rx         050F  3  01 00 A2 
   975)     88302.0  Rx         050F  3  01 00 A7 
   976)     88402.0  Rx         050F  3  01 00 AD 
   977)     88502.0  Rx         050F  3  01 00 B2 
   978)     88602.0  Rx         050F  3  01 00 B8 
   979)     88702.0  Rx         050F  3  01 00 BE 
   980)     88801.9  Rx         050F  3  01 00 C3 
   981)     88901.9  Rx         050F  3  01 00 C7 
   982)     89002.0  Rx         050F  3  01 00 CC 
   983)     89101.9  Rx         050F  3  01 00 D0 
   984)     89102.2  Rx         050F  3  00 08 40 
   985)     89201.9  Rx         050F  3  01 00 D4 
   986)     89302.0  Rx         050F  3  01 00 D8 
   987)     89402.0  Rx         050F  3  01 00 DB 
   988)     89501.9  Rx         050F  3  01 00 DD 
   989)     89601.9  Rx         050F  3  01 00 DF 
   990)     89701.9  Rx         050F  3  01 00 E2 
   991)     89801.9  Rx         050F  3  01 00 E6 
   992)     89901.9  Rx         050F  3  01 00 EB 
   993)     90001.9  Rx         050F  3  01 00 EF 
   994)     90101.9  Rx         050F  3  01 00 F4 
   995)     90102.2  Rx         050F  3  00 08 43 
   996)     90201.9  Rx         050F  3  01 00 FE 
   997)     90301.9  Rx         050F  3  01 01 04 
   998)     90402.0  Rx         050F  3  01 01 08 
   999)     90501.9  Rx         050F  3  01 01 0C 
  1000)     90601.9  Rx         050F  3  01 01 10 
  1001)     90701.9  Rx         050F  3  01 01 13 
  1002)     90801.9  Rx         050F  3  01 01 18 
  1003)     90902.0  Rx         050F  3  01 01 1D 
  1004)     91002.0  Rx         050F  3  01 01 22 
  1005)     91102.0  Rx         050F  3  01 01 28 
  1006)     91102.3  Rx         050F  3  00 08 4A 
  1007)     91202.0  Rx         050F  3  01 01 2A 
  1008)     91302.0  Rx         050F  3  01 01 2B 
  1009)     91402.0  Rx         050F  3  01 01 2C 
  1010)     91502.1  Rx         050F  3  01 01 2C 
  1011)     91602.0  Rx         050F  3  01 01 2A 
  1012)     91702.0  Rx         050F  3  01 01 23 
  1013)     91802.0  Rx         050F  3  01 01 1A 
  1014)     91902.0  Rx         050F  3  01 01 0F 
  1015)     92002.0  Rx         050F  3  01 00 FE 
  1016)     92102.0  Rx         050F  3  01 00 EF 
  1017)     92102.3  Rx         050F  3  00 08 48 
  1018)     92202.0  Rx         050F  3  01 00 E4 
  1019)     92302.0  Rx         050F  3  01 00 DB 
  1020)     92402.0  Rx         050F  3  01 00 CF 
  1021)     92502.0  Rx         050F  3  01 00 C4 
  1022)     92602.1  Rx         050F  3  01 00 B6 
  1023)     92702.1  Rx         050F  3  01 00 AA 
  1024)     92802.1  Rx         050F  3  01 00 99 
  1025)     92902.1  Rx         050F  3  01 00 86 
  1026)     93002.0  Rx         050F  3  01 00 76 
  1027)     93102.1  Rx         050F  3  01 00 68 
  1028)     93102.4  Rx         050F  3  00 08 55 
  1029)     93202.1  Rx         050F  3  01 00 59 
  1030)     93302.1  Rx         050F  3  01 00 42 
  1031)     93402.1  Rx         050F  3  01 00 31 
  1032)     93502.1  Rx         050F  3  01 00 23 
  1033)     93602.2  Rx         050F  3  01 00 17 
  1034)     93702.0  Rx         050F  3  01 00 0A 
  1035)     93802.0  Rx         050F  3  01 00 02 
  1036)     93902.0  Rx         050F  3  01 FF FF 
  1037)     94002.0  Rx         050F  3  01 FF FE 
  1038)     94102.0  Rx         050F  3  01 FF FE 
  1039)     94102.3  Rx         050F  3  00 08 59 
  1040)     94202.0  Rx         050F  3  01 00 04 
  1041)     94302.0  Rx         050F  3  01 00 0D 
  1042)     94402.0  Rx         050F  3  01 00 18 
  1043)     94502.0  Rx         050F  3  01 00 22 
  1044)     94602.0  Rx         050F  3  01 00 2D 
  1045)     94702.0  Rx         050F  3  01 00 3D 
  1046)     94802.0  Rx         050F  3  01 00 4C 
  1047)     94902.0  Rx         050F  3  01 00 58 
  1048)     95002.0  Rx         050F  3  01 00 63 
  1049)     95102.0  Rx         050F  3  01 00 6B 
  1050)     95102.3  Rx         050F  3  00 08 50 
  1051)     95202.0  Rx         050F  3  01 00 77 
  1052)     95302.0  Rx         050F  3  01 00 82 
  1053)     95402.0  Rx         050F  3  01 00 90 
  1054)     95502.0  Rx         050F  3  01 00 99 
  1055)     95602.0  Rx         050F  3  01 00 A1 
  1056)     95702.0  Rx         050F  3  01 00 A8 
  1057)     95802.0  Rx         050F  3  01 00 AD 
  1058)     95902.0  Rx         050F  3  01 00 B4 
  1059)     96001.9  Rx         050F  3  01 00 BB 
  1060)     96101.9  Rx         050F  3  01 00 C1 
  1061)     96102.2  Rx         050F  3  00 08 5E 
  1062)     96201.9  Rx         050F  3  01 00 C7 
  1063)     96302.0  Rx         050F  3  01 00 CD 
  1064)     96402.0  Rx         050F  3  01 00 D2 
  1065)     96502.0  Rx         050F  3  01 00 D7 
  1066)     96601.9  Rx         050F  3  01 00 DA 
  1067)     96702.0  Rx         050F  3  01 00 DE 
  1068)     96802.0  Rx         050F  3  01 00 E2 
  1069)     96902.0  Rx         050F  3  01 00 E8 
  1070)     97002.0  Rx         050F  3  01 00 EC 
  1071)     97102.0  Rx         050F  3  01 00 F3 
  1072)     97102.3  Rx         050F  3  00 08 5E 
  1073)     97202.0  Rx         050F  3  01 00 FD 
  1074)     97302.0  Rx         050F  3  01 01 04 
  1075)     97402.0  Rx         050F  3  01 01 0A 
  1076)     97502.0  Rx         050F  3  01 01 0F 
  1077)     97602.0  Rx         050F  3  01 01 15 
  1078)     97702.0  Rx         050F  3  01 01 1C 
  1079)     97802.0  Rx         050F  3  01 01 23 
  1080)     97902.0  Rx         050F  3  01 01 2B 
  1081)     98002.0  Rx         050F  3  01 01 34 
  1082)     98102.0  Rx         050F  3  01 01 3F 
  1083)     98102.3  Rx         050F  3  00 08 54 
  1084)     98202.0  Rx         050F  3  01 01 4C 
  1085)     98302.0  Rx         050F  3  01 01 58 
  1086)     98402.0  Rx         050F  3  01 01 64 
  1087)     98502.0  Rx         050F  3  01 01 72 
  1088)     98602.1  Rx         050F  3  01 01 80 
  1089)     98702.1  Rx         050F  3  01 01 8C 
  1090)     98802.1  Rx         050F  3  01 01 99 
  1091)     98902.1  Rx         050F  3  01 01 A7 
  1092)     99002.0  Rx         050F  3  01 01 AF 
  1093)     99102.0  Rx         050F  3  01 01 B2 
  1094)     99102.4  Rx         050F  3  00 08 58 
  1095)     99202.0  Rx         050F  3  01 01 B4 
  1096)     99302.1  Rx         050F  3  01 01 AA 
  1097)     99402.0  Rx         050F  3  01 01 99 
  1098)     99502.0  Rx         050F  3  01 01 85 
  1099)     99602.0  Rx         050F  3  01 01 6F 
  1100)     99702.0  Rx         050F  3  01 01 5A 
  1101)     99802.0  Rx         050F  3  01 01 42 
  1102)     99902.0  Rx         050F  3  01 01 2F 
  1103)    100002.0  Rx         050F  3  01 01 1F 
  1104)    100102.0  Rx         050F  3  01 01 14 
  1105)    100102.3  Rx         050F  3  00 08 66 
  1106)    100202.0  Rx         050F  3  01 01 04 
  1107)    100302.0  Rx         050F  3  01 00 F4 
  1108)    100402.0  Rx         050F  3  01 00 E8 
  1109)    100502.0  Rx         050F  3  01 00 E1 
  1110)    100602.0  Rx         050F  3  01 00 D9 
  1111)    100702.0  Rx         050F  3  01 00 CE 
  1112)    100802.0  Rx         050F  3  01 00 C3 
  1113)    100901.9  Rx         050F  3  01 00 B7 
  1114)    101002.0  Rx         050F  3  01 00 AC 
  1115)    101102.0  Rx         050F  3  01 00 9B 
  1116)    101102.3  Rx         050F  3  00 08 6B 
  1117)    101202.0  Rx         050F  3  01 00 88 
  1118)    101302.0  Rx         050F  3  01 00 76 
  1119)    101401.9  Rx         050F  3  01 00 67 
  1120)    101502.0  Rx         050F  3  01 00 55 
  1121)    101601.9  Rx         050F  3  01 00 3D 
  1122)    101701.9  Rx         050F  3  01 00 2D 
  1123)    101801.9  Rx         050F  3  01 00 1F 
  1124)    101901.8  Rx         050F  3  01 00 12 
  1125)    102001.8  Rx         050F  3  01 00 06 
  1126)    102101.8  Rx         050F  3  01 00 00 
  1127)    102102.1  Rx         050F  3  00 08 6D 
  1128)    102201.8  Rx         050F  3  01 FF FD 
  1129)    102301.9  Rx         050F  3  01 FF FC 
  1130)    102401.8  Rx         050F  3  01 00 00 
  1131)    102501.8  Rx         050F  3  01 00 0A 
  1132)    102601.9  Rx         050F  3  01 00 17 
  1133)    102701.8  Rx         050F  3  01 00 25 
  1134)    102801.8  Rx         050F  3  01 00 39 
  1135)    102901.8  Rx         050F  3  01 00 4B 
  1136)    103001.8  Rx         050F  3  01 00 58 
  1137)    103101.8  Rx         050F  3  01 00 63 
  1138)    103102.1  Rx         050F  3  00 08 7F 
  1139)    103201.8  Rx         050F  3  01 00 6D 
  1140)    103301.8  Rx         050F  3  01 00 7B 
  1141)    103401.8  Rx         050F  3  01 00 89 
  1142)    103501.8  Rx         050F  3  01 00 95 
  1143)    103601.8  Rx         050F  3  01 00 9F 
  1144)    103701.8  Rx         050F  3  01 00 A8 
  1145)    103801.8  Rx         050F  3  01 00 AF 
  1146)    103901.9  Rx         050F  3  01 00 B8 
  1147)    104001.9  Rx         050F  3  01 00 C0 
  1148)    104101.8  Rx         050F  3  01 00 C6 
  1149)    104102.1  Rx         050F  3  00 08 88 
  1150)    104201.8  Rx         050F  3  01 00 CB 
  1151)    104301.9  Rx         050F  3  01 00 CD 
  1152)    104401.9  Rx         050F  3  01 00 CE 
  1153)    104501.9  Rx         050F  3  01 00 CE 
  1154)    104601.9  Rx         050F  3  01 00 CF 
  1155)    104701.9  Rx         050F  3  01 00 CD 
  1156)    104801.8  Rx         050F  3  01 00 CA 
  1157)    104901.8  Rx         050F  3  01 00 C4 
  1158)    105001.8  Rx         050F  3  01 00 BB 
  1159)    105101.8  Rx         050F  3  01 00 B1 
  1160)    105102.1  Rx         050F  3  00 08 87 
  1161)    105201.8  Rx         050F  3  01 00 A6 
  1162)    105301.8  Rx         050F  3  01 00 97 
  1163)    105401.9  Rx         050F  3  01 00 89 
  1164)    105501.8  Rx         050F  3  01 00 79 
  1165)    105601.9  Rx         050F  3  01 00 6C 
  1166)    105701.9  Rx         050F  3  01 00 60 
  1167)    105801.9  Rx         050F  3  01 00 50 
  1168)    105901.9  Rx         050F  3  01 00 3A 
  1169)    106001.9  Rx         050F  3  01 00 2B 
  1170)    106101.9  Rx         050F  3  01 00 1E 
  1171)    106102.2  Rx         050F  3  00 08 93 
  1172)    106201.8  Rx         050F  3  01 00 13 
  1173)    106301.8  Rx         050F  3  01 00 08 
  1174)    106401.9  Rx         050F  3  01 00 01 
  1175)    106501.9  Rx         050F  3  01 FF FF 
  1176)    106601.9  Rx         050F  3  01 FF FE 
  1177)    106701.9  Rx         050F  3  01 00 01 
  1178)    106801.9  Rx         050F  3  01 00 0E 
  1179)    106901.9  Rx         050F  3  01 00 1D 
  1180)    107002.0  Rx         050F  3  01 00 33 
  1181)    107102.0  Rx         050F  3  01 00 48 
  1182)    107102.3  Rx         050F  3  00 08 9B 
  1183)    107202.0  Rx         050F  3  01 00 5A 
  1184)    107302.1  Rx         050F  3  01 00 67 
  1185)    107402.1  Rx         050F  3  01 00 77 
  1186)    107502.1  Rx         050F  3  01 00 88 
  1187)    107602.1  Rx         050F  3  01 00 97 
  1188)    107702.1  Rx         050F  3  01 00 A4 
  1189)    107802.1  Rx         050F  3  01 00 AE 
  1190)    107902.1  Rx         050F  3  01 00 B9 
  1191)    108002.1  Rx         050F  3  01 00 C3 
  1192)    108102.2  Rx         050F  3  01 00 CD 
  1193)    108102.5  Rx         050F  3  00 08 A3 
  1194)    108202.3  Rx         050F  3  01 00 D5 
  1195)    108302.3  Rx         050F  3  01 00 DC 
  1196)    108402.3  Rx         050F  3  01 00 E2 
  1197)    108502.3  Rx         050F  3  01 00 E7 
  1198)    108602.3  Rx         050F  3  01 00 EB 
  1199)    108702.3  Rx         050F  3  01 00 ED 
  1200)    108802.3  Rx         050F  3  01 00 EE 
  1201)    108902.3  Rx         050F  3  01 00 EF 
  1202)    109002.3  Rx         050F  3  01 00 EF 
  1203)    109102.3  Rx         050F  3  01 00 EE 
  1204)    109102.6  Rx         050F  3  00 08 AF 
  1205)    109202.3  Rx         050F  3  01 00 EC 
  1206)    109302.4  Rx         050F  3  01 00 E7 
  1207)    109402.4  Rx         050F  3  01 00 E2 
  1208)    109502.4  Rx         050F  3  01 00 DD 
  1209)    109602.4  Rx         050F  3  01 00 D5 
  1210)    109702.4  Rx         050F  3  01 00 CD 
  1211)    109802.4  Rx         050F  3  01 00 C4 
  1212)    109902.4  Rx         050F  3  01 00 B8 
  1213)    110002.5  Rx         050F  3  01 00 AE 
  1214)    110102.4  Rx         050F  3  01 00 A3 
  1215)    110102.7  Rx         050F  3  00 08 B6 
  1216)    110202.4  Rx         050F  3  01 00 96 
  1217)    110302.5  Rx         050F  3  01 00 84 
  1218)    110402.5  Rx         050F  3  01 00 76 
  1219)    110502.5  Rx         050F  3  01 00 6A 
  1220)    110602.5  Rx         050F  3  01 00 5D 
  1221)    110702.5  Rx         050F  3  01 00 48 
  1222)    110802.5  Rx         050F  3  01 00 36 
  1223)    110902.5  Rx         050F  3  01 00 27 
  1224)    111002.6  Rx         050F  3  01 00 1B 
  1225)    111102.5  Rx         050F  3  01 00 10 
  1226)    111102.8  Rx         050F  3  00 08 BF 
  1227)    111202.5  Rx         050F  3  01 00 05 
  1228)    111302.5  Rx         050F  3  01 00 00 
  1229)    111402.5  Rx         050F  3  01 FF FE 
  1230)    111502.5  Rx         050F  3  01 FF FD 
  1231)    111602.5  Rx         050F  3  01 00 03 
  1232)    111702.6  Rx         050F  3  01 00 10 
  1233)    111802.6  Rx         050F  3  01 00 21 
  1234)    111902.6  Rx         050F  3  01 00 3C 
  1235)    112002.6  Rx         050F  3  01 00 52 
  1236)    112102.6  Rx         050F  3  01 00 65 
  1237)    112102.9  Rx         050F  3  00 08 C7 
  1238)    112202.6  Rx         050F  3  01 00 7A 
  1239)    112302.7  Rx         050F  3  01 00 8F 
  1240)    112402.7  Rx         050F  3  01 00 9E 
  1241)    112502.7  Rx         050F  3  01 00 AD 
  1242)    112602.7  Rx         050F  3  01 00 BB 
  1243)    112702.7  Rx         050F  3  01 00 C7 
  1244)    112802.7  Rx         050F  3  01 00 D3 
  1245)    112902.7  Rx         050F  3  01 00 DD 
  1246)    113002.7  Rx         050F  3  01 00 E8 
  1247)    113102.8  Rx         050F  3  01 00 F9 
  1248)    113103.1  Rx         050F  3  00 08 C8 
  1249)    113202.9  Rx         050F  3  01 01 07 
  1250)    113302.9  Rx         050F  3  01 01 15 
  1251)    113402.9  Rx         050F  3  01 01 22 
  1252)    113502.9  Rx         050F  3  01 01 2D 
  1253)    113603.0  Rx         050F  3  01 01 34 
  1254)    113703.0  Rx         050F  3  01 01 39 
  1255)    113803.0  Rx         050F  3  01 01 3B 
  1256)    113903.0  Rx         050F  3  01 01 3C 
  1257)    114003.0  Rx         050F  3  01 01 3C 
  1258)    114103.0  Rx         050F  3  01 01 39 
  1259)    114103.3  Rx         050F  3  00 08 CA 
  1260)    114203.1  Rx         050F  3  01 01 2F 
  1261)    114303.1  Rx         050F  3  01 01 22 
  1262)    114403.1  Rx         050F  3  01 01 15 
  1263)    114503.1  Rx         050F  3  01 01 03 
  1264)    114603.2  Rx         050F  3  01 00 F4 
  1265)    114703.1  Rx         050F  3  01 00 E7 
  1266)    114803.2  Rx         050F  3  01 00 DE 
  1267)    114903.2  Rx         050F  3  01 00 D5 
  1268)    115003.2  Rx         050F  3  01 00 CD 
  1269)    115103.2  Rx         050F  3  01 00 C2 
  1270)    115103.5  Rx         050F  3  00 08 DA 
  1271)    115203.2  Rx         050F  3  01 00 BA 
  1272)    115303.2  Rx         050F  3  01 00 B1 
  1273)    115403.3  Rx         050F  3  01 00 A9 
  1274)    115503.3  Rx         050F  3  01 00 9F 
  1275)    115603.3  Rx         050F  3  01 00 8E 
  1276)    115703.3  Rx         050F  3  01 00 7D 
  1277)    115803.3  Rx         050F  3  01 00 6F 
  1278)    115903.4  Rx         050F  3  01 00 62 
  1279)    116003.4  Rx         050F  3  01 00 51 
  1280)    116103.4  Rx         050F  3  01 00 3C 
  1281)    116103.7  Rx         050F  3  00 08 DB 
  1282)    116203.4  Rx         050F  3  01 00 2D 
  1283)    116303.4  Rx         050F  3  01 00 1F 
  1284)    116403.3  Rx         050F  3  01 00 11 
  1285)    116503.4  Rx         050F  3  01 00 05 
  1286)    116603.4  Rx         050F  3  01 00 00 
  1287)    116703.3  Rx         050F  3  01 FF FD 
  1288)    116803.4  Rx         050F  3  01 FF FB 
  1289)    116903.4  Rx         050F  3  01 FF FF 
  1290)    117003.4  Rx         050F  3  01 00 0B 
  1291)    117103.4  Rx         050F  3  01 00 1B 
  1292)    117103.7  Rx         050F  3  00 08 DE 
  1293)    117203.4  Rx         050F  3  01 00 35 
  1294)    117303.4  Rx         050F  3  01 00 50 
  1295)    117403.5  Rx         050F  3  01 00 64 
  1296)    117503.5  Rx         050F  3  01 00 7C 
  1297)    117603.5  Rx         050F  3  01 00 92 
  1298)    117703.5  Rx         050F  3  01 00 A7 
  1299)    117803.5  Rx         050F  3  01 00 B8 
  1300)    117903.5  Rx         050F  3  01 00 C8 
  1301)    118003.5  Rx         050F  3  01 00 D5 
  1302)    118103.5  Rx         050F  3  01 00 E3 
  1303)    118103.9  Rx         050F  3  00 08 DF 
  1304)    118203.6  Rx         050F  3  01 00 FB 
  1305)    118303.6  Rx         050F  3  01 01 10 
  1306)    118403.8  Rx         050F  3  01 01 2B 
  1307)    118503.7  Rx         050F  3  01 01 4A 
  1308)    118603.7  Rx         050F  3  01 01 6D 
  1309)    118703.7  Rx         050F  3  01 01 8C 
  1310)    118803.8  Rx         050F  3  01 01 A7 
  1311)    118903.8  Rx         050F  3  01 01 C3 
  1312)    119003.8  Rx         050F  3  01 01 D6 
  1313)    119103.8  Rx         050F  3  01 01 E0 
  1314)    119104.1  Rx         050F  3  00 08 E0 
  1315)    119203.8  Rx         050F  3  01 01 E5 
  1316)    119303.9  Rx         050F  3  01 01 E8 
  1317)    119403.9  Rx         050F  3  01 01 E9 
  1318)    119503.9  Rx         050F  3  01 01 E9 
  1319)    119603.9  Rx         050F  3  01 01 E3 
  1320)    119703.9  Rx         050F  3  01 01 CD 
  1321)    119804.0  Rx         050F  3  01 01 AF 
  1322)    119904.0  Rx         050F  3  01 01 8D 
  1323)    120004.0  Rx         050F  3  01 01 70 
  1324)    120104.0  Rx         050F  3  01 01 56 
  1325)    120104.3  Rx         050F  3  00 08 F4 
  1326)    120204.0  Rx         050F  3  01 01 3F 
  1327)    120304.1  Rx         050F  3  01 01 2C 
  1328)    120404.1  Rx         050F  3  01 01 1A 
  1329)    120504.1  Rx         050F  3  01 01 09 
  1330)    120604.1  Rx         050F  3  01 00 F7 
  1331)    120704.2  Rx         050F  3  01 00 EA 
  1332)    120804.1  Rx         050F  3  01 00 E0 
  1333)    120904.2  Rx         050F  3  01 00 D7 
  1334)    121004.2  Rx         050F  3  01 00 CE 
  1335)    121104.2  Rx         050F  3  01 00 C5 
  1336)    121104.5  Rx         050F  3  00 08 E7 
  1337)    121204.2  Rx         050F  3  01 00 BA 
  1338)    121304.3  Rx         050F  3  01 00 B0 
  1339)    121404.3  Rx         050F  3  01 00 A6 
  1340)    121504.3  Rx         050F  3  01 00 99 
  1341)    121604.3  Rx         050F  3  01 00 89 
  1342)    121704.4  Rx         050F  3  01 00 78 
  1343)    121804.3  Rx         050F  3  01 00 6B 
  1344)    121904.4  Rx         050F  3  01 00 5F 
  1345)    122004.4  Rx         050F  3  01 00 4D 
  1346)    122104.4  Rx         050F  3  01 00 38 
  1347)    122104.7  Rx         050F  3  00 08 F3 
  1348)    122204.4  Rx         050F  3  01 00 29 
  1349)    122304.5  Rx         050F  3  01 00 1C 
  1350)    122404.4  Rx         050F  3  01 00 0F 
  1351)    122504.4  Rx         050F  3  01 00 03 
  1352)    122604.4  Rx         050F  3  01 FF FD 
  1353)    122704.4  Rx         050F  3  01 FF FB 
  1354)    122804.5  Rx         050F  3  01 FF F9 
  1355)    122904.4  Rx         050F  3  01 00 00 
  1356)    123004.5  Rx         050F  3  01 00 0E 
  1357)    123104.5  Rx         050F  3  01 00 1F 
  1358)    123104.8  Rx         050F  3  00 09 01 
  1359)    123204.5  Rx         050F  3  01 00 39 
  1360)    123304.5  Rx         050F  3  01 00 50 
  1361)    123404.6  Rx         050F  3  01 00 66 
  1362)    123504.6  Rx         050F  3  01 00 7E 
  1363)    123604.6  Rx         050F  3  01 00 96 
  1364)    123704.6  Rx         050F  3  01 00 AB 
  1365)    123804.6  Rx         050F  3  01 00 C0 
  1366)    123904.6  Rx         050F  3  01 00 D5 
  1367)    124004.6  Rx         050F  3  01 00 EE 
  1368)    124104.6  Rx         050F  3  01 01 0B 
  1369)    124104.9  Rx         050F  3  00 09 07 
  1370)    124204.6  Rx         050F  3  01 01 31 
  1371)    124304.7  Rx         050F  3  01 01 63 
  1372)    124404.8  Rx         050F  3  01 01 97 
  1373)    124504.8  Rx         050F  3  01 01 C6 
  1374)    124604.8  Rx         050F  3  01 01 F0 
  1375)    124704.8  Rx         050F  3  01 02 14 
  1376)    124804.8  Rx         050F  3  01 02 28 
  1377)    124904.8  Rx         050F  3  01 02 3B 
  1378)    125004.7  Rx         050F  3  01 02 4B 
  1379)    125104.8  Rx         050F  3  01 02 56 
  1380)    125105.1  Rx         050F  3  00 09 07 
  1381)    125204.8  Rx         050F  3  01 02 60 
  1382)    125304.8  Rx         050F  3  01 02 67 
  1383)    125404.8  Rx         050F  3  01 02 6B 
  1384)    125504.8  Rx         050F  3  01 02 6D 
  1385)    125604.8  Rx         050F  3  01 02 6E 
  1386)    125704.7  Rx         050F  3  01 02 6E 
  1387)    125804.7  Rx         050F  3  01 02 6E 
  1388)    125904.8  Rx         050F  3  01 02 6C 
  1389)    126004.7  Rx         050F  3  01 02 63 
  1390)    126104.8  Rx         050F  3  01 02 4F 
  1391)    126105.0  Rx         050F  3  00 09 24 
  1392)    126204.8  Rx         050F  3  01 02 3C 
  1393)    126304.8  Rx         050F  3  01 02 25 
  1394)    126404.8  Rx         050F  3  01 02 05 
  1395)    126504.7  Rx         050F  3  01 01 E1 
  1396)    126604.8  Rx         050F  3  01 01 BD 
  1397)    126704.7  Rx         050F  3  01 01 9B 
  1398)    126753.1  Rx         0500  3  0D 00 01 
  1399)    126804.8  Rx         050F  3  01 01 7B 
  1400)    126904.7  Rx         050F  3  01 01 5B 
  1401)    127004.7  Rx         050F  3  01 01 40 
  1402)    127104.8  Rx         050F  3  01 01 29 
  1403)    127105.1  Rx         050F  3  00 09 2E 
  1404)    127204.8  Rx         050F  3  01 01 17 
  1405)    127304.8  Rx         050F  3  01 01 02 
  1406)    127404.8  Rx         050F  3  01 00 F0 
  1407)    127504.8  Rx         050F  3  01 00 E4 
  1408)    127604.8  Rx         050F  3  01 00 DB 
  1409)    127704.8  Rx         050F  3  01 00 D2 
  1410)    127804.8  Rx         050F  3  01 00 C8 
  1411)    127904.8  Rx         050F  3  01 00 BE 
  1412)    128004.8  Rx         050F  3  01 00 B4 
  1413)    128104.8  Rx         050F  3  01 00 AC 
  1414)    128105.1  Rx         050F  3  00 09 28 
  1415)    128204.8  Rx         050F  3  01 00 A1 
  1416)    128304.9  Rx         050F  3  01 00 93 
  1417)    128404.9  Rx         050F  3  01 00 84 
  1418)    128504.9  Rx         050F  3  01 00 77 
  1419)    128604.9  Rx         050F  3  01 00 6B 
  1420)    128704.8  Rx         050F  3  01 00 5F 
  1421)    128804.9  Rx         050F  3  01 00 4F 
  1422)    128904.9  Rx         050F  3  01 00 3C 
  1423)    129004.9  Rx         050F  3  01 00 2D 
  1424)    129104.9  Rx         050F  3  01 00 1F 
  1425)    129105.2  Rx         050F  3  00 09 31 
  1426)    129204.8  Rx         050F  3  01 00 13 
  1427)    129304.8  Rx         050F  3  01 00 07 
  1428)    129404.8  Rx         050F  3  01 00 00 
  1429)    129504.8  Rx         050F  3  01 FF FD 
  1430)    129604.8  Rx         050F  3  01 FF FC 
  1431)    129704.8  Rx         050F  3  01 FF FE 
  1432)    129804.9  Rx         050F  3  01 00 09 
  1433)    129904.9  Rx         050F  3  01 00 18 
  1434)    130004.9  Rx         050F  3  01 00 31 
  1435)    130104.9  Rx         050F  3  01 00 4A 
  1436)    130105.2  Rx         050F  3  00 09 3A 
  1437)    130204.9  Rx         050F  3  01 00 5D 
  1438)    130304.9  Rx         050F  3  01 00 70 
  1439)    130404.9  Rx         050F  3  01 00 8A 
  1440)    130504.9  Rx         050F  3  01 00 A0 
  1441)    130604.9  Rx         050F  3  01 00 B8 
  1442)    130704.9  Rx         050F  3  01 00 D0 
  1443)    130804.9  Rx         050F  3  01 00 F3 
  1444)    130904.9  Rx         050F  3  01 01 28 
  1445)    131004.9  Rx         050F  3  01 01 64 
  1446)    131104.9  Rx         050F  3  01 01 A6 
  1447)    131105.1  Rx         050F  3  00 09 3A 
  1448)    131205.0  Rx         050F  3  01 01 DE 
  1449)    131305.0  Rx         050F  3  01 02 0F 
  1450)    131405.0  Rx         050F  3  01 02 31 
  1451)    131505.0  Rx         050F  3  01 02 4F 
  1452)    131605.0  Rx         050F  3  01 02 67 
  1453)    131705.0  Rx         050F  3  01 02 80 
  1454)    131805.0  Rx         050F  3  01 02 93 
  1455)    131905.0  Rx         050F  3  01 02 A6 
  1456)    132005.0  Rx         050F  3  01 02 BD 
  1457)    132105.0  Rx         050F  3  01 02 D1 
  1458)    132105.3  Rx         050F  3  00 09 48 
  1459)    132205.0  Rx         050F  3  01 02 E1 
  1460)    132305.0  Rx         050F  3  01 02 F1 
  1461)    132405.0  Rx         050F  3  01 02 FE 
  1462)    132505.0  Rx         050F  3  01 03 05 
  1463)    132605.0  Rx         050F  3  01 03 0A 
  1464)    132704.9  Rx         050F  3  01 03 0B 
  1465)    132805.0  Rx         050F  3  01 03 0C 
  1466)    132905.0  Rx         050F  3  01 03 09 
  1467)    133005.0  Rx         050F  3  01 02 FA 
  1468)    133105.0  Rx         050F  3  01 02 EB 
  1469)    133105.3  Rx         050F  3  00 09 49 
  1470)    133205.0  Rx         050F  3  01 02 DA 
  1471)    133305.0  Rx         050F  3  01 02 C5 
  1472)    133405.1  Rx         050F  3  01 02 B0 
  1473)    133505.0  Rx         050F  3  01 02 A0 
  1474)    133605.0  Rx         050F  3  01 02 8F 
  1475)    133705.0  Rx         050F  3  01 02 81 
  1476)    133805.0  Rx         050F  3  01 02 74 
  1477)    133905.0  Rx         050F  3  01 02 63 
  1478)    134005.0  Rx         050F  3  01 02 50 
  1479)    134105.0  Rx         050F  3  01 02 3D 
  1480)    134105.3  Rx         050F  3  00 09 57 
  1481)    134205.0  Rx         050F  3  01 02 25 
  1482)    134305.1  Rx         050F  3  01 02 06 
  1483)    134405.1  Rx         050F  3  01 01 E0 
  1484)    134505.0  Rx         050F  3  01 01 B8 
  1485)    134605.1  Rx         050F  3  01 01 94 
  1486)    134705.1  Rx         050F  3  01 01 72 
  1487)    134805.1  Rx         050F  3  01 01 4F 
  1488)    134905.1  Rx         050F  3  01 01 34 
  1489)    135005.0  Rx         050F  3  01 01 1D 
  1490)    135105.0  Rx         050F  3  01 01 07 
  1491)    135105.3  Rx         050F  3  00 09 57 
  1492)    135205.1  Rx         050F  3  01 00 F3 
  1493)    135305.1  Rx         050F  3  01 00 E5 
  1494)    135405.1  Rx         050F  3  01 00 DA 
  1495)    135505.0  Rx         050F  3  01 00 D0 
  1496)    135605.1  Rx         050F  3  01 00 C8 
  1497)    135705.0  Rx         050F  3  01 00 BD 
  1498)    135805.1  Rx         050F  3  01 00 B4 
  1499)    135905.1  Rx         050F  3  01 00 AB 
  1500)    136005.1  Rx         050F  3  01 00 A2 
  1501)    136105.1  Rx         050F  3  01 00 96 
  1502)    136105.4  Rx         050F  3  00 09 66 
  1503)    136205.0  Rx         050F  3  01 00 88 
  1504)    136305.1  Rx         050F  3  01 00 7A 
  1505)    136405.1  Rx         050F  3  01 00 6F 
  1506)    136505.1  Rx         050F  3  01 00 65 
  1507)    136605.1  Rx         050F  3  01 00 5A 
  1508)    136705.0  Rx         050F  3  01 00 4A 
  1509)    136805.1  Rx         050F  3  01 00 38 
  1510)    136905.0  Rx         050F  3  01 00 2A 
  1511)    137005.0  Rx         050F  3  01 00 1C 
  1512)    137045.0  Rx         0503  1  02 
  1513)    137128.0  Rx         050F  3  01 00 11 
  1514)    137128.3  Rx         050F  3  00 09 6D 
  1515)    137228.0  Rx         050F  3  01 00 0B 
  1516)    137328.0  Rx         050F  3  01 00 07 
  1517)    137428.0  Rx         050F  3  01 00 06 
  1518)    137528.0  Rx         050F  3  01 00 05 
  1519)    137628.0  Rx         050F  3  01 00 05 
  1520)    137728.0  Rx         050F  3  01 00 05 
  1521)    137828.0  Rx         050F  3  01 00 05 
  1522)    137928.1  Rx         050F  3  01 00 05 
  1523)    138028.1  Rx         050F  3  01 00 05 
  1524)    138128.0  Rx         050F  3  01 00 05 
  1525)    138128.3  Rx         050F  3  00 09 78 
  1526)    138228.1  Rx         050F  3  01 00 05 
  1527)    138328.1  Rx         050F  3  01 00 05 
  1528)    138428.1  Rx         050F  3  01 00 05 
  1529)    138528.1  Rx         050F  3  01 00 05 
  1530)    138628.1  Rx         050F  3  01 00 05 
  1531)    138728.1  Rx         050F  3  01 00 05 
  1532)    138828.0  Rx         050F  3  01 00 05 
  1533)    138928.0  Rx         050F  3  01 00 06 
  1534)    139028.0  Rx         050F  3  01 00 06 
  1535)    139128.0  Rx         050F  3  01 00 06 
  1536)    139128.3  Rx         050F  3  00 09 7C 
  1537)    139228.1  Rx         050F  3  01 00 06 
  1538)    139328.1  Rx         050F  3  01 00 06 
  1539)    139428.0  Rx         050F  3  01 00 06 
  1540)    139528.1  Rx         050F  3  01 00 06 
  1541)    139628.1  Rx         050F  3  01 00 06 
  1542)    139728.1  Rx         050F  3  01 00 07 
  1543)    139828.1  Rx         050F  3  01 00 07 
  1544)    139928.1  Rx         050F  3  01 00 07 
  1545)    140028.1  Rx         050F  3  01 00 07 
  1546)    140128.1  Rx         050F  3  01 00 07 
  1547)    140128.4  Rx         050F  3  00 09 83 
  1548)    140228.1  Rx         050F  3  01 00 07 
  1549)    140328.1  Rx         050F  3  01 00 07 
  1550)    140428.1  Rx         050F  3  01 00 07 
  1551)    140528.1  Rx         050F  3  01 00 07 
  1552)    140628.1  Rx         050F  3  01 00 07 
  1553)    140728.1  Rx         050F  3  01 00 08 
  1554)    140828.1  Rx         050F  3  01 00 08 
  1555)    140928.1  Rx         050F  3  01 00 08 
  1556)    141028.1  Rx         050F  3  01 00 08 
  1557)    141128.1  Rx         050F  3  01 00 08 
  1558)    141128.4  Rx         050F  3  00 09 87 
  1559)    141228.1  Rx         050F  3  01 00 08 
  1560)    141328.2  Rx         050F  3  01 00 08 
  1561)    141428.2  Rx         050F  3  01 00 08 
  1562)    141528.2  Rx         050F  3  01 00 08 
  1563)    141628.2  Rx         050F  3  01 00 08 
  1564)    141728.2  Rx         050F  3  01 00 08 
  1565)    141828.2  Rx         050F  3  01 00 08 
  1566)    141928.2  Rx         050F  3  01 00 09 
  1567)    142028.2  Rx         050F  3  01 00 09 
  1568)    142128.2  Rx         050F  3  01 00 09 
  1569)    142128.5  Rx         050F  3  00 09 8D 
  1570)    142228.2  Rx         050F  3  01 00 09 
  1571)    142328.2  Rx         050F  3  01 00 09 
  1572)    142428.2  Rx         050F  3  01 00 09 
  1573)    142528.2  Rx         050F  3  01 00 09 
  1574)    142628.2  Rx         050F  3  01 00 09 
  1575)    142728.2  Rx         050F  3  01 00 09 
  1576)    142828.2  Rx         050F  3  01 00 0A 
  1577)    142928.2  Rx         050F  3  01 00 0A 
  1578)    143028.2  Rx         050F  3  01 00 0A 
  1579)    143128.2  Rx         050F  3  01 00 09 
  1580)    143128.5  Rx         050F  3  00 09 8F 
  1581)    143228.2  Rx         050F  3  01 00 0A 
  1582)    143328.2  Rx         050F  3  01 00 0A 
  1583)    143428.2  Rx         050F  3  01 00 0A 
  1584)    143528.3  Rx         050F  3  01 00 0A 
  1585)    143628.2  Rx         050F  3  01 00 0A 
  1586)    143728.2  Rx         050F  3  01 00 0A 
  1587)    143828.2  Rx         050F  3  01 00 0A 
  1588)    143928.2  Rx         050F  3  01 00 0A 
  1589)    144028.3  Rx         050F  3  01 00 0A 
  1590)    144128.2  Rx         050F  3  01 00 0A 
  1591)    144128.6  Rx         050F  3  00 09 8E 
  1592)    144228.3  Rx         050F  3  01 00 0A 
  1593)    144328.3  Rx         050F  3  01 00 0A 
  1594)    144428.3  Rx         050F  3  01 00 0A 
  1595)    144528.3  Rx         050F  3  01 00 0A 
  1596)    144628.3  Rx         050F  3  01 00 0A 
  1597)    144728.3  Rx         050F  3  01 00 0A 
  1598)    144828.3  Rx         050F  3  01 00 0A 
  1599)    144928.3  Rx         050F  3  01 00 0A 
  1600)    145028.3  Rx         050F  3  01 00 0A 
  1601)    145128.4  Rx         050F  3  01 00 0A 
  1602)    145128.7  Rx         050F  3  00 09 99 
  1603)    145228.3  Rx         050F  3  01 00 0A 
  1604)    145328.4  Rx         050F  3  01 00 0A 
  1605)    145428.4  Rx         050F  3  01 00 0B 
  1606)    145528.4  Rx         050F  3  01 00 0A 
  1607)    145628.4  Rx         050F  3  01 00 0B 
  1608)    145728.4  Rx         050F  3  01 00 0A 
  1609)    145828.4  Rx         050F  3  01 00 0B 
  1610)    145928.4  Rx         050F  3  01 00 0A 
  1611)    146028.4  Rx         050F  3  01 00 0B 
  1612)    146128.4  Rx         050F  3  01 00 0B 
  1613)    146128.7  Rx         050F  3  00 09 94 
  1614)    146228.4  Rx         050F  3  01 00 0B 
  1615)    146328.4  Rx         050F  3  01 00 0B 
  1616)    146428.4  Rx         050F  3  01 00 0B 
  1617)    146528.4  Rx         050F  3  01 00 0B 
  1618)    146628.4  Rx         050F  3  01 00 0B 
  1619)    146728.4  Rx         050F  3  01 00 0B 
  1620)    146828.4  Rx         050F  3  01 00 0B 
  1621)    146928.4  Rx         050F  3  01 00 0B 
  1622)    147028.4  Rx         050F  3  01 00 0B 
  1623)    147128.4  Rx         050F  3  01 00 0B 
  1624)    147128.7  Rx         050F  3  00 09 99 
  1625)    147228.4  Rx         050F  3  01 00 0B 
  1626)    147328.5  Rx         050F  3  01 00 0B 
  1627)    147428.5  Rx         050F  3  01 00 0B 
  1628)    147528.5  Rx         050F  3  01 00 0B 
  1629)    147628.5  Rx         050F  3  01 00 0B 
  1630)    147728.5  Rx         050F  3  01 00 0B 
  1631)    147828.5  Rx         050F  3  01 00 0B 
  1632)    147928.5  Rx         050F  3  01 00 0B 
  1633)    148028.5  Rx         050F  3  01 00 0B 
  1634)    148128.5  Rx         050F  3  01 00 0B 
  1635)    148128.8  Rx         050F  3  00 09 9A 
  1636)    148228.5  Rx         050F  3  01 00 0B 
  1637)    148328.4  Rx         050F  3  01 00 0B 
  1638)    148428.4  Rx         050F  3  01 00 0C 
  1639)    148528.4  Rx         050F  3  01 00 0C 
  1640)    148628.4  Rx         050F  3  01 00 0C 
  1641)    148728.4  Rx         050F  3  01 00 0B 
  1642)    148828.5  Rx         050F  3  01 00 0B 
  1643)    148928.4  Rx         050F  3  01 00 0C 
  1644)    149028.4  Rx         050F  3  01 00 0C 
  1645)    149128.4  Rx         050F  3  01 00 0C 
  1646)    149128.7  Rx         050F  3  00 09 A4 
  1647)    149228.4  Rx         050F  3  01 00 0C 
  1648)    149328.4  Rx         050F  3  01 00 0C 
  1649)    149428.4  Rx         050F  3  01 00 0C 
  1650)    149528.4  Rx         050F  3  01 00 0C 
  1651)    149628.4  Rx         050F  3  01 00 0C 
